!Mini-Circuits Laboratory
!S-Parameters
!Model: MPGA-105+
!Run / Lot / Date Code: NA / BP384P001-05 / 1348
!Fixture: NA; TB-561+
!AUTO PORT EXTENSION DONE: PORT<1>=113.35ps; PORT<2>=112.76ps; PORT<3>=112.16ps; PORT<4>=112.11ps
!Network Analyzer: PNA-X N5242A - 423 4 ports;  Serial number: 71256
!Date: 2/15/2014
!S/N: Unit# 1
!Correction: S11(Full 4 Port(1,2,3,4)) 
!S12(Full 4 Port(1,2,3,4)) 
!S13(Full 4 Port(1,2,3,4)) 
!S14(Full 4 Port(1,2,3,4)) 
!S21(Full 4 Port(1,2,3,4)) 
!S22(Full 4 Port(1,2,3,4)) 
!S23(Full 4 Port(1,2,3,4)) 
!S24(Full 4 Port(1,2,3,4)) 
!S31(Full 4 Port(1,2,3,4)) 
!S32(Full 4 Port(1,2,3,4)) 
!S33(Full 4 Port(1,2,3,4)) 
!S34(Full 4 Port(1,2,3,4)) 
!S41(Full 4 Port(1,2,3,4)) 
!S42(Full 4 Port(1,2,3,4)) 
!S43(Full 4 Port(1,2,3,4)) 
!S44(Full 4 Port(1,2,3,4)) 
!S4P File: Measurements: <S11,S12,S13,S14>,
!<S21,S22,S23,S24>,
!<S31,S32,S33,S34>,
!<S41,S42,S43,S44>:
# Hz S  dB   R 50
10000000 -3.0871031 -38.582115 -22.501915 50.658249 -41.959553 76.340538 -47.145851 56.283875
20.037386 158.92126 -4.5480809 -42.026962 -32.638744 88.287704 -38.778244 67.019302
-44.743431 104.02477 -48.752987 98.833633 -2.8477762 -38.857143 -22.326468 47.121159
-34.345108 111.61197 -38.636227 107.00737 20.078417 159.84802 -4.0690198 -42.089695
20000000 -6.3997622 -58.392906 -20.09276 28.784101 -67.487778 -55.342438 -64.826523 -73.12101
17.932806 155.83862 -7.678401 -65.319153 -53.901367 74.941284 -74.705849 33.095093
-60.457264 110.8876 -66.42572 114.55537 -6.3351417 -58.236599 -20.061628 29.111193
-53.15366 79.285652 -68.389915 68.286903 17.967676 155.81012 -7.6346221 -65.299423
30000000 -9.2034502 -66.991776 -19.407049 19.525791 -63.021309 176.07571 -66.306221 52.13818
16.691561 157.49608 -10.53229 -77.671936 -51.90192 61.675583 -65.470451 77.763969
-61.353493 -7.4164476 -60.116802 115.25397 -9.1740398 -67.312714 -19.445225 19.763222
-51.369514 50.259064 -64.308609 16.399925 16.723217 157.34657 -10.510443 -77.82177
40000000 -11.392088 -71.654037 -19.111469 14.291162 -66.687698 -87.110619 -66.983803 89.534676
16.012177 159.66801 -12.825147 -85.822739 -52.143314 79.896896 -69.557442 83.505547
-68.420341 53.659081 -76.480652 125.39867 -11.39573 -71.839386 -19.139275 14.122447
-50.475151 58.926579 -60.89333 100.41096 16.028936 159.57973 -12.818001 -86.126297
50000000 -13.125591 -73.661201 -18.92701 11.24242 -55.318359 108.05588 -57.571148 -27.570547
15.618615 161.48488 -14.736097 -91.351753 -48.708138 82.002403 -64.381027 -2.7266817
-67.684692 -56.146408 -60.996826 58.639858 -13.136387 -74.60302 -18.977674 10.271353
-50.233818 55.08123 -60.033188 83.644936 15.644274 161.41037 -14.600071 -92.407265
60000000 -14.547246 -77.471169 -18.963535 7.2565427 -57.60519 -18.650133 -56.251705 -148.88963
15.371284 162.82695 -16.094259 -98.256088 -48.13393 69.44117 -69.020592 -46.198944
-61.804352 91.878159 -64.340309 -97.707787 -14.608173 -76.600578 -18.983164 8.4486132
-46.89283 83.784348 -57.974033 -95.444885 15.378387 162.67886 -16.064217 -98.566368
70000000 -15.810163 -77.352028 -18.913877 6.1690888 -75.709572 -164.36107 -71.663048 -149.00032
15.213102 163.75317 -17.56369 -102.60233 -48.952023 70.342041 -66.696777 133.21118
-61.686382 104.77655 -83.532623 -14.030758 -15.834895 -77.641281 -18.900637 6.1394563
-45.994839 71.020111 -72.930244 109.58236 15.220898 163.70602 -17.418337 -103.2174
80000000 -16.817402 -78.175064 -18.855051 4.4370174 -69.371132 106.87092 -74.281288 -102.64917
15.105549 164.30032 -18.74667 -107.32209 -47.114807 74.827118 -72.947037 116.70535
-67.370926 145.30775 -74.908119 -86.398674 -16.889122 -78.051521 -18.898251 4.4692278
-45.707478 67.020081 -71.531174 93.838005 15.113745 164.2961 -18.625034 -108.05977
90000000 -17.715147 -78.762276 -18.856846 3.0823941 -68.191208 65.235237 -82.380577 -100.81599
15.031256 164.64058 -19.752083 -111.74551 -45.604687 69.231384 -65.091896 156.08186
-72.4963 102.99612 -80.846161 50.79274 -17.792828 -78.85302 -18.894701 3.2891967
-44.836548 72.659767 -69.539734 98.538315 15.033978 164.65331 -19.637791 -112.41871
100000000 -18.493687 -79.142166 -18.844414 2.0097091 -65.791985 91.551575 -87.412369 90.915138
14.970902 164.79903 -20.768368 -116.00747 -45.143467 73.935951 -68.969017 106.59657
-66.469902 103.76599 -72.672943 -46.130619 -18.55698 -79.545914 -18.864704 1.9739602
-43.746796 70.187485 -72.111137 118.21207 14.978541 164.81311 -20.531271 -116.92418
110000000 -19.19138 -79.701775 -18.822449 0.84694028 -63.302471 84.45565 -86.233147 -49.227962
14.932864 164.77763 -21.652336 -120.74044 -44.518169 69.964783 -70.39843 75.722672
-65.408943 116.51564 -68.099274 -116.05331 -19.299311 -79.767639 -18.843346 0.94408774
-42.888748 69.061516 -62.035866 72.141075 14.944296 164.80711 -21.40638 -121.12202
120000000 -19.794271 -80.231537 -18.818661 -0.10599707 -63.474342 85.417641 -75.601517 -77.091095
14.898759 164.70828 -22.49172 -124.98849 -44.339741 71.470634 -67.959457 76.813957
-66.761528 101.79561 -78.434395 33.944027 -19.960508 -80.533348 -18.85784 -0.10493462
-42.157635 70.028564 -62.046478 97.375969 14.903995 164.694 -22.138632 -125.95226
130000000 -20.252472 -80.357407 -18.811377 -0.4151901 -58.417637 95.505836 -63.840725 -38.062862
14.873155 164.57492 -23.238052 -129.79695 -43.24321 70.762993 -63.84771 100.05684
-59.591885 80.24379 -81.830818 -77.888969 -20.462692 -81.380684 -18.857414 -0.73517853
-41.674648 69.286728 -60.196178 78.541183 14.874619 164.62315 -22.751923 -130.29092
140000000 -20.891861 -80.963371 -18.835592 -1.6254913 -63.949165 107.46655 -71.23291 49.952824
14.845915 164.31833 -23.803598 -135.34074 -42.712288 69.672363 -63.201538 93.134613
-61.746613 88.788658 -69.247131 105.88805 -21.012886 -81.068748 -18.835722 -1.6871263
-40.584995 67.527046 -62.227558 94.06543 14.85499 164.30473 -23.446278 -134.45837
150000000 -21.292715 -81.71228 -18.833117 -2.4991808 -65.237381 71.885941 -82.894264 -99.736305
14.822287 164.01512 -24.331934 -140.41051 -42.191353 69.040909 -64.127586 81.595284
-60.127018 94.326614 -77.461517 80.719376 -21.447632 -81.316246 -18.843718 -2.3431308
-40.174824 69.348701 -60.998177 82.484512 14.828289 164.11639 -23.949282 -138.96838
160000000 -21.72154 -81.611084 -18.831299 -3.2668169 -74.471321 89.183472 -73.695137 -20.893892
14.809511 163.71385 -24.893721 -144.83107 -41.909004 68.388153 -63.44986 97.747948
-60.766842 96.045258 -71.087662 82.706749 -21.888294 -82.062012 -18.837357 -3.1401651
-39.788982 68.307388 -60.617146 94.922951 14.80724 163.76544 -24.402506 -143.97006
170000000 -22.173864 -82.468002 -18.843208 -3.8681386 -66.165337 132.50595 -74.629799 178.59102
14.794821 163.36153 -25.277607 -149.84875 -41.491352 68.291603 -62.041302 101.88271
-59.288338 85.724541 -76.170555 119.30973 -22.209654 -82.665642 -18.827047 -3.9100635
-39.154427 67.086723 -60.45475 86.925926 14.798036 163.41986 -24.876575 -147.80672
180000000 -22.423326 -82.612488 -18.835188 -4.5254655 -65.082466 114.27455 -75.0755 179.28221
14.782558 162.98866 -25.688126 -154.49229 -41.038757 66.196274 -60.80043 101.27157
-60.430847 101.73396 -84.022209 -111.9268 -22.625944 -83.115738 -18.859058 -4.6001301
-38.698814 66.131241 -59.535034 91.765396 14.783038 163.02173 -25.185188 -152.59587
190000000 -22.731863 -83.442375 -18.813396 -5.2180338 -59.522156 96.471397 -73.992088 164.95961
14.772131 162.5372 -26.00215 -159.4313 -40.245712 67.463394 -62.830688 101.96636
-60.05077 103.44723 -87.832016 -8.1580639 -22.932985 -83.956657 -18.863192 -5.1755362
-38.375519 66.243828 -57.277641 75.333389 14.775945 162.59032 -25.377953 -157.2193
200000000 -22.94615 -83.490257 -18.819761 -5.9301076 -62.660797 92.092072 -73.799377 -167.00107
14.767572 162.09943 -26.194244 -164.53661 -39.874123 66.725845 -61.131897 100.10919
-58.856483 78.754509 -65.910439 -137.98521 -23.161036 -84.866348 -18.841751 -5.8912997
-37.909458 66.046921 -60.489388 74.392967 14.765594 162.15315 -25.604805 -161.53046
210000000 -23.347036 -85.062172 -18.83865 -6.3658638 -63.116398 107.60378 -75.217751 127.0557
14.752305 161.64102 -26.255016 -169.98982 -39.67535 64.382797 -59.440285 97.261276
-57.978348 103.10421 -71.48558 140.50542 -23.285168 -84.929276 -18.823345 -6.7330952
-37.411461 65.252007 -57.309818 84.770691 14.769368 161.5833 -25.848351 -165.64201
220000000 -23.561913 -85.86541 -18.836853 -6.9108205 -68.847382 116.79987 -68.443306 135.67421
14.744903 161.14786 -26.379877 -175.14946 -39.132633 63.186348 -59.544182 96.871498
-58.423473 92.298439 -76.074005 -167.03168 -23.568041 -85.809059 -18.832987 -7.1104813
-37.317486 63.677593 -58.312843 83.054695 14.758573 161.12537 -25.93779 -170.36253
230000000 -23.719015 -86.414871 -18.840502 -7.4727907 -60.465157 103.74302 -78.428459 -122.37386
14.735973 160.64819 -26.436171 -179.30495 -38.813198 63.110622 -60.252499 94.869781
-59.829994 109.01398 -71.923889 161.88057 -23.829111 -86.459251 -18.864796 -7.7916474
-36.764542 62.226994 -56.793095 78.280304 14.748136 160.60492 -26.021862 -174.41356
240000000 -23.895311 -87.541481 -18.839497 -8.0412073 -61.202141 107.14648 -76.830154 21.753525
14.733105 160.12747 -26.349688 176.12201 -38.40213 63.261822 -61.284237 93.485306
-58.833839 105.87973 -72.560539 149.87975 -23.991957 -87.609451 -18.825312 -8.3988953
-36.344948 61.1926 -56.36697 82.272064 14.746317 160.10287 -26.169109 -178.49826
250000000 -24.037544 -88.923164 -18.864243 -8.6124344 -65.434769 87.272018 -67.538185 56.983299
14.723318 159.6073 -26.222986 172.55777 -37.976376 61.182034 -55.71719 89.075455
-56.501545 109.0135 -70.125328 123.36201 -24.134642 -88.679863 -18.826786 -8.8533258
-35.939884 62.624176 -56.519516 89.50766 14.735891 159.54881 -26.053411 178.0231
260000000 -24.380762 -88.54985 -18.877279 -9.2434187 -61.021133 95.243629 -74.454704 81.081398
14.722219 159.03888 -26.15402 167.65019 -37.485107 61.596424 -60.37011 95.491402
-58.927441 107.42308 -69.573326 122.67918 -24.322588 -89.91571 -18.856096 -9.5442352
-35.754044 61.576015 -57.52998 74.787682 14.736221 158.99268 -26.113461 174.69135
270000000 -24.323553 -89.690964 -18.848877 -9.7369719 -58.571167 122.5395 -67.905434 48.163498
14.72088 158.46637 -26.142544 165.03101 -37.297562 61.255753 -58.201786 74.391098
-57.154007 100.80093 -68.928421 -94.408409 -24.525999 -90.363907 -18.838133 -9.8544674
-35.234341 59.269779 -56.743179 89.458649 14.733033 158.4751 -25.997824 170.22543
280000000 -24.543507 -91.764214 -18.827469 -10.244576 -61.821186 94.176453 -72.347137 29.280024
14.712928 157.94356 -25.970499 161.17038 -37.337421 58.539532 -61.040718 80.160019
-55.592125 91.235947 -63.014153 54.836823 -24.616619 -91.775253 -18.86046 -10.87369
-35.10791 58.663109 -56.718311 89.329353 14.725826 157.90227 -25.847185 166.98242
290000000 -24.653139 -92.154305 -18.861807 -10.877453 -60.089268 98.328331 -78.599686 81.584061
14.709037 157.38158 -25.812805 158.09134 -36.588322 58.778404 -58.114216 99.316681
-59.745132 69.813232 -70.6548 15.630207 -24.798542 -93.140205 -18.852938 -10.920848
-34.938957 58.015423 -55.688942 82.902313 14.718338 157.3484 -25.697287 163.01797
300000000 -24.699713 -93.506683 -18.857592 -11.455551 -57.968201 116.38825 -75.379425 -111.2467
14.704557 156.79921 -25.608925 155.30785 -36.500259 58.366657 -60.411377 91.995621
-57.879192 99.01857 -69.018608 123.22682 -24.799097 -93.964493 -18.847834 -11.568729
-34.626339 56.634308 -54.442581 85.259026 14.717196 156.72466 -25.68638 160.49153
310000000 -24.805788 -95.635124 -18.844622 -12.01506 -58.205517 98.123856 -70.480057 144.33237
14.695194 156.23338 -25.332239 152.40559 -36.410278 56.379688 -55.823639 112.35358
-56.090622 93.929329 -73.445511 144.55951 -25.002871 -95.202858 -18.834929 -11.98349
-34.364143 56.092541 -54.974991 86.918129 14.708511 156.19122 -25.52956 157.51791
320000000 -24.970097 -96.872337 -18.869614 -12.695111 -58.06599 90.610542 -71.335419 -166.04778
14.694718 155.65388 -25.143219 149.1143 -36.179626 57.157993 -57.518959 85.129112
-57.014183 113.21787 -76.334709 141.48578 -25.227259 -96.834038 -18.848318 -12.722695
-34.041012 55.537449 -54.743164 84.055542 14.705263 155.6711 -25.350046 154.42711
330000000 -25.115139 -97.917847 -18.88397 -12.982401 -57.789749 107.68479 -84.697327 124.92921
14.690849 155.10428 -24.903502 146.43799 -35.704956 54.954494 -56.473625 95.878899
-53.699505 87.280479 -69.653564 150.75226 -25.248337 -98.716469 -18.868216 -13.133643
-33.76115 55.172466 -55.125111 76.786865 14.700968 155.02469 -25.047758 152.55988
340000000 -25.074652 -99.451828 -18.880219 -13.456544 -59.31242 87.517609 -84.847168 -39.678883
14.685872 154.50023 -24.680979 144.558 -35.470806 55.015709 -55.578899 93.947968
-56.284386 97.433327 -68.61792 97.406273 -25.070204 -99.935204 -18.908993 -13.839495
-33.457623 54.193886 -53.915138 75.992943 14.700849 154.46819 -24.883152 150.89233
350000000 -25.237741 -100.42331 -18.857992 -14.045261 -59.562214 114.11826 -69.566811 162.70863
14.680451 153.92804 -24.583294 141.64661 -35.444 53.435783 -55.288792 94.808754
-53.603619 82.650642 -69.892204 -131.02486 -25.288572 -101.68108 -18.904348 -14.080406
-33.084927 51.539719 -54.93491 82.903687 14.697677 153.81442 -24.651941 147.68536
360000000 -25.190775 -102.29404 -18.896299 -14.447228 -57.141819 106.00485 -69.265373 70.82045
14.676386 153.31938 -24.252899 140.76076 -35.154949 53.320488 -55.533619 99.02581
-53.585014 93.835739 -81.137321 145.5851 -25.325367 -103.00269 -18.88316 -14.700121
-33.150665 52.725826 -53.272251 85.3619 14.689167 153.23685 -24.514997 146.12964
370000000 -25.370813 -103.75114 -18.882765 -14.810543 -56.764309 108.94384 -76.342796 73.073196
14.671101 152.69926 -24.000397 138.75101 -34.691788 53.201298 -54.800983 98.469612
-53.29398 94.803452 -67.090874 116.90874 -25.463144 -105.61663 -18.889832 -15.197798
-32.716003 51.305851 -53.416965 86.885811 14.688081 152.66107 -24.221989 143.86905
380000000 -25.447592 -106.26226 -18.902834 -15.536366 -57.588612 111.93671 -77.079956 125.73222
14.664728 152.10535 -23.743311 136.75423 -34.515549 51.290646 -54.868816 89.953613
-54.085205 88.800774 -77.651436 82.119553 -25.568743 -105.42416 -18.927485 -15.688083
-32.616924 50.344135 -54.370571 84.434402 14.68363 152.06224 -23.98963 141.62776
390000000 -25.537745 -108.05434 -18.89666 -15.880153 -54.8381 107.79037 -71.234985 163.13408
14.663957 151.51059 -23.474686 134.78156 -34.304688 50.427536 -54.835579 85.416351
-53.112171 92.862938 -72.635452 25.158434 -25.506868 -107.38907 -18.895079 -16.221794
-32.315994 49.759026 -52.134262 78.403122 14.685086 151.43169 -23.971214 140.33174
400000000 -25.478674 -110.52158 -18.920446 -16.500689 -55.592896 100.81622 -76.545204 -161.16641
14.658886 150.90163 -23.18836 132.86156 -34.041588 49.473015 -54.589973 89.250473
-52.629711 91.29113 -73.591934 46.197876 -25.695845 -109.36255 -18.885693 -16.719849
-32.08786 48.903503 -53.319065 72.486099 14.676164 150.85735 -23.617573 138.18053
410000000 -25.504482 -110.83112 -18.927237 -16.875896 -57.194443 100.28429 -78.195442 167.62094
14.658351 150.29071 -23.041515 131.64474 -33.972801 48.170868 -54.47966 84.624619
-53.542553 89.990555 -77.230804 -80.872917 -25.543039 -110.91757 -18.926207 -17.216993
-31.936016 48.646053 -53.923851 85.981117 14.680267 150.21858 -23.447624 137.20001
420000000 -25.527878 -112.87223 -18.915407 -17.365557 -54.939377 103.12899 -68.550552 143.24008
14.653921 149.68774 -22.797132 129.90306 -33.900326 48.126881 -53.855339 84.094574
-52.75256 87.111504 -75.198357 179.67384 -25.608849 -113.30846 -18.947275 -17.670799
-31.724241 47.722351 -51.459396 76.55658 14.673798 149.58885 -23.285925 135.28511
430000000 -25.606625 -114.58517 -18.940897 -17.756712 -55.388233 110.71757 -91.578125 -73.878365
14.652978 149.08163 -22.5583 128.04279 -33.599861 46.466881 -53.406956 87.962463
-51.398567 89.508171 -70.265823 81.160126 -25.660673 -114.54527 -18.922138 -18.202763
-31.52951 46.786274 -52.860573 81.10582 14.671605 148.98293 -23.008015 133.75954
440000000 -25.543791 -116.24574 -18.926279 -18.375238 -54.314175 102.60482 -71.671135 66.251015
14.65064 148.4604 -22.404776 126.93009 -33.453304 45.621296 -53.835747 87.82856
-51.855865 96.839684 -68.61454 114.08524 -25.704571 -116.84351 -18.927036 -18.517555
-31.372938 45.922241 -52.069771 77.150452 14.66708 148.34706 -22.851908 132.87447
450000000 -25.438725 -118.33298 -18.941727 -18.90234 -53.817593 104.26089 -71.832779 79.53878
14.645452 147.82451 -22.234205 126.19688 -33.190865 44.971638 -52.763588 98.989601
-51.550896 96.235924 -67.069176 162.23825 -25.698277 -119.13473 -18.937977 -19.159033
-31.241018 45.678493 -51.518471 81.09655 14.662104 147.74979 -22.671438 131.15636
460000000 -25.555372 -119.26762 -18.942158 -19.270651 -54.977699 107.37356 -71.236862 49.284344
14.643655 147.19128 -22.012545 125.03544 -33.182255 44.203808 -52.845776 82.95063
-52.613499 87.400536 -85.007454 78.189079 -25.700544 -121.02904 -18.973618 -19.826511
-31.036442 44.264336 -52.000397 80.437744 14.662253 147.11006 -22.471317 129.96867
470000000 -25.56131 -121.84908 -18.950926 -19.817909 -54.752468 108.07832 -70.871223 -14.438299
14.638793 146.58578 -21.789957 123.92246 -32.923546 42.874203 -52.829224 90.861565
-51.399506 88.129608 -70.796227 103.73217 -25.653351 -121.83093 -18.974827 -20.091772
-30.836821 42.50565 -51.184128 84.684494 14.660998 146.52686 -22.214907 128.7101
480000000 -25.456085 -123.28062 -18.97332 -20.292532 -53.653175 112.3657 -80.731796 103.45488
14.637916 145.94463 -21.611174 123.03097 -32.807632 42.587925 -52.341122 89.204269
-51.865513 102.68922 -73.667679 85.551285 -25.660187 -123.71199 -18.977623 -20.633091
-30.739876 42.428867 -51.481335 82.332626 14.651809 145.87065 -22.086519 127.45299
490000000 -25.436115 -125.28149 -18.970932 -20.699467 -53.78833 108.57648 -95.506836 -54.438461
14.63276 145.31409 -21.38743 121.79457 -32.51762 41.986919 -52.773663 93.264259
-50.66877 97.949142 -73.89254 -133.84921 -25.668566 -125.21331 -18.98525 -21.13014
-30.597862 41.017307 -51.321087 81.287033 14.657941 145.25127 -21.86834 126.21246
500000000 -25.461058 -127.32439 -18.963661 -21.254129 -54.144417 107.86021 -70.190559 99.261765
14.630691 144.7261 -21.21443 120.04 -32.382931 39.565708 -52.809669 94.942612
-50.691574 91.218269 -69.571091 83.32476 -25.680984 -127.54429 -18.969954 -21.621456
-30.294661 40.638809 -51.870827 77.481613 14.652165 144.60832 -21.700354 124.92688
510000000 -25.311728 -128.66695 -18.974669 -21.695545 -53.342865 104.10047 -66.748543 79.085815
14.628408 144.04535 -20.987745 119.03322 -32.251038 39.793949 -51.567417 95.198357
-49.951763 93.631454 -78.567497 86.724854 -25.54888 -128.9785 -18.988672 -22.117212
-30.25036 39.809326 -50.835789 83.508347 14.645989 143.98767 -21.512222 123.80658
520000000 -25.325172 -130.53662 -18.982294 -22.198376 -52.927055 98.317566 -70.319 97.791168
14.626628 143.44551 -20.795134 118.26059 -32.123981 38.423958 -53.932365 92.867378
-50.286003 96.227791 -68.531868 23.977919 -25.650974 -130.68253 -18.986288 -22.517847
-30.144115 38.743328 -50.3326 78.647232 14.644928 143.34138 -21.43767 123.52003
530000000 -25.31703 -132.68608 -19.015636 -22.523346 -52.170486 107.0765 -74.197243 101.47115
14.624601 142.78186 -20.628887 117.55157 -31.939608 37.915627 -52.112598 90.951256
-49.605728 88.460434 -77.606857 -152.60864 -25.478117 -133.06378 -18.977547 -22.978779
-29.905493 37.537304 -50.054672 79.722282 14.642395 142.6915 -21.166048 122.2259
540000000 -25.27544 -134.32874 -18.988686 -23.146275 -51.596252 101.53999 -68.37738 116.17502
14.619482 142.1572 -20.420368 116.79511 -31.789459 36.603474 -52.20203 85.815895
-50.623543 82.641815 -70.394646 158.47789 -25.565182 -134.90399 -19.008654 -23.70462
-29.779173 37.548378 -50.386581 84.70575 14.639608 142.10376 -20.996803 121.00977
550000000 -25.211788 -136.39307 -18.997389 -23.59042 -51.511494 104.89029 -78.440933 -68.942429
14.615737 141.52307 -20.247225 115.5929 -31.68284 35.857536 -51.825287 80.024605
-49.235794 91.474159 -67.858734 124.4838 -25.508635 -136.7713 -19.025383 -24.143368
-29.659872 35.997684 -50.731186 78.356537 14.636913 141.40762 -20.81407 119.99905
