!Mini-Circuits Laboratory
!S-Parameters
!Model: MGVA-63+
!Run / Lot / Date Code: NA / AH404P001-04 / 1348
!Fixture: NA; TB-561+
!AUTO PORT EXTENSION DONE: PORT<1>=113.62ps; PORT<2>=112.79ps; PORT<3>=112.29ps; PORT<4>=112.3ps
!Network Analyzer: PNA-X N5242A - 423 4 ports;  Serial number: 71256
!Date: 2/10/20114
!S/N: Unit# 1
!Correction: S11(Full 4 Port(1,2,3,4)) 
!S12(Full 4 Port(1,2,3,4)) 
!S13(Full 4 Port(1,2,3,4)) 
!S14(Full 4 Port(1,2,3,4)) 
!S21(Full 4 Port(1,2,3,4)) 
!S22(Full 4 Port(1,2,3,4)) 
!S23(Full 4 Port(1,2,3,4)) 
!S24(Full 4 Port(1,2,3,4)) 
!S31(Full 4 Port(1,2,3,4)) 
!S32(Full 4 Port(1,2,3,4)) 
!S33(Full 4 Port(1,2,3,4)) 
!S34(Full 4 Port(1,2,3,4)) 
!S41(Full 4 Port(1,2,3,4)) 
!S42(Full 4 Port(1,2,3,4)) 
!S43(Full 4 Port(1,2,3,4)) 
!S44(Full 4 Port(1,2,3,4)) 
!S4P File: Measurements: <S11,S12,S13,S14>,
!<S21,S22,S23,S24>,
!<S31,S32,S33,S34>,
!<S41,S42,S43,S44>:
# Hz S  dB   R 50
10000000 -12.354937 -51.173473 -27.913174 28.885864 -38.582794 123.70177 -45.874447 128.27026
24.608313 168.77937 -7.0402141 -28.557449 -27.791811 132.28526 -35.478077 141.60217
-40.336689 127.22998 -51.150745 89.429352 -11.650869 -49.004204 -28.016798 25.888712
-27.739216 132.67014 -38.87336 101.97887 24.535185 168.42937 -6.860147 -29.800617
20000000 -13.793571 -83.18219 -26.081997 17.534033 -60.38591 -64.789146 -62.12582 -1.723171
23.359692 166.20186 -9.4393682 -48.049332 -47.237255 71.324722 -61.715115 -89.788574
-60.29472 76.032837 -68.266891 29.084154 -13.812898 -82.318909 -25.798712 18.431583
-44.929466 70.048447 -62.619865 -165.66281 23.37912 166.19458 -9.4561958 -47.091324
30000000 -15.349858 -104.08485 -25.385017 13.448844 -62.469296 22.285469 -68.061729 143.97391
22.643414 167.01826 -11.859748 -55.909733 -43.634613 67.087219 -66.327339 82.345886
-71.116409 -13.794147 -63.366405 118.22646 -15.234458 -103.71334 -25.273262 13.864198
-44.975536 73.719894 -68.760559 -8.6835136 22.662394 166.92223 -11.850044 -55.807873
40000000 -16.301577 -118.2235 -25.048513 10.22428 -70.980217 66.258911 -87.157074 95.984985
22.255396 168.19696 -13.737998 -59.435432 -41.666275 68.755638 -68.908463 54.001003
-78.216568 -114.44599 -68.947021 119.95565 -16.272104 -117.80019 -24.985977 10.71245
-42.644608 74.777946 -68.389664 101.72752 22.266941 168.15474 -13.748106 -59.224121
50000000 -17.07077 -129.10603 -24.743025 8.5924425 -67.553619 -89.77095 -57.001945 43.018635
22.039591 169.19287 -15.225435 -59.884041 -40.56588 70.09021 -58.407749 78.310097
-56.79921 132.24045 -61.270103 38.421383 -16.913818 -127.78114 -24.804165 8.9230776
-40.797852 79.080574 -57.71246 58.733624 22.034727 169.07658 -15.291334 -59.738228
60000000 -17.846237 -135.77826 -24.782372 5.0997686 -62.087002 133.97661 -55.766712 -78.216095
21.866812 169.90572 -16.297365 -60.280777 -38.919342 71.518608 -57.884003 41.695896
-66.855614 43.956017 -67.633881 147.17044 -17.508389 -136.02885 -24.809385 6.7373786
-38.625793 65.473854 -58.615726 -110.50539 21.886318 170.1599 -16.275673 -60.507095
70000000 -17.952034 -141.88811 -24.785011 5.6354728 -60.875813 118.61472 -72.340057 76.525459
21.794767 170.3345 -17.222172 -60.38636 -37.663746 73.099709 -63.000706 83.759483
-64.022491 60.908669 -84.173172 -2.0714087 -17.997583 -141.27097 -24.769493 5.3606267
-38.127769 72.40757 -68.559425 150.94307 21.803366 170.50984 -17.273321 -59.480717
80000000 -18.310078 -146.93874 -24.71747 4.1688523 -62.573807 98.77478 -74.834602 -97.681412
21.737118 170.57874 -17.9203 -59.58823 -36.477551 73.466522 -64.515579 58.743645
-60.81757 79.726608 -71.141182 -125.66061 -18.322489 -145.91808 -24.731043 4.3677869
-36.815914 74.129356 -64.206772 120.98474 21.744825 170.76839 -17.962971 -58.594219
90000000 -18.603603 -150.53233 -24.72768 3.4361463 -64.710182 87.466515 -72.755737 -43.776932
21.693096 170.73598 -18.504477 -58.431442 -35.619652 74.29493 -68.396706 109.45642
-60.20435 89.84391 -71.445206 172.98952 -18.607283 -149.92975 -24.692533 3.5507963
-35.969582 74.890831 -65.031799 100.24937 21.703636 170.93115 -18.577103 -57.272907
100000000 -18.840502 -154.10318 -24.645691 2.9627171 -63.577084 83.198479 -68.609688 -1.4578395
21.662109 170.76035 -18.984194 -57.09626 -34.621334 73.725639 -63.184975 51.289001
-58.375717 95.283646 -67.583427 -22.435886 -18.824202 -153.14026 -24.659603 2.7835462
-35.083553 75.685211 -68.244659 93.388618 21.669878 170.93114 -18.99682 -56.416538
110000000 -19.016174 -157.22932 -24.645309 2.3134379 -60.921009 76.410141 -84.06649 -57.685539
21.640181 170.68378 -19.37628 -56.004768 -33.899784 74.565796 -60.639542 88.036621
-59.857594 81.945358 -77.427734 148.38869 -19.034576 -156.34502 -24.66983 2.8502538
-34.425392 76.017166 -65.175552 75.911171 21.651691 170.82182 -19.420557 -55.280647
120000000 -19.182707 -160.0619 -24.643822 1.6148535 -57.987591 93.805664 -74.170097 -86.562614
21.61709 170.57654 -19.689909 -55.287968 -33.083786 73.221153 -60.351532 90.410202
-59.959862 85.850983 -86.741234 157.69604 -19.219482 -159.52966 -24.626698 1.9769822
-33.595516 74.656448 -63.682167 97.064316 21.633989 170.73798 -19.776619 -54.598232
130000000 -19.251831 -162.70802 -24.618786 2.2129574 -61.599968 112.59506 -65.794792 78.775879
21.596334 170.45036 -20.014803 -55.07555 -32.415043 72.695602 -58.65757 84.695251
-58.951759 81.426773 -69.739189 -139.9487 -19.395788 -161.88347 -24.645628 1.4704677
-33.043674 74.880463 -58.959743 80.112694 21.615698 170.53856 -19.993227 -53.728416
140000000 -19.429205 -165.02924 -24.630465 1.0738686 -56.845573 76.914833 -70.550507 128.14951
21.589926 170.23853 -20.265806 -54.495884 -31.743275 72.765343 -60.99773 97.058151
-58.613815 85.592224 -73.725883 94.326714 -19.516224 -164.37369 -24.660126 1.244024
-32.459702 73.801514 -59.862991 96.187347 21.608889 170.3486 -20.261673 -53.396935
150000000 -19.473 -167.27928 -24.619471 0.73852181 -56.775051 72.083183 -71.598061 -152.98386
21.580034 170.03883 -20.464218 -54.408443 -31.230324 73.056297 -59.095257 88.433296
-57.990593 69.839241 -73.452484 -161.71649 -19.538097 -166.71237 -24.734327 0.71920389
-31.863445 73.070076 -58.320129 91.36956 21.590914 170.23993 -20.470957 -53.157997
160000000 -19.520737 -169.55879 -24.613892 0.30007142 -56.147614 85.471825 -74.759537 8.271348
21.574671 169.79474 -20.70804 -54.229584 -30.742887 71.934464 -58.753723 82.793365
-58.792683 77.514534 -67.469925 -90.547104 -19.5086 -168.65286 -24.659599 0.2500717
-31.311024 72.7472 -61.706932 73.454483 21.580069 169.96341 -20.691507 -53.634125
170000000 -19.435553 -171.67381 -24.64151 -0.074206457 -55.70179 82.661804 -89.360367 -68.808701
21.56624 169.48904 -20.927063 -55.176517 -30.173828 71.980659 -57.904961 86.979698
-56.697788 84.028664 -68.461212 141.18158 -19.526417 -170.53677 -24.62368 0.099862345
-30.832327 73.003342 -58.897377 97.857582 21.576799 169.68155 -20.903593 -53.653603
180000000 -19.443897 -173.55017 -24.618162 -0.26934624 -55.549633 83.662849 -73.777985 -27.437819
21.558966 169.23314 -21.072565 -55.584404 -29.73242 71.441841 -57.05592 89.448509
-56.876602 87.079102 -75.918434 138.1068 -19.48852 -172.54984 -24.61237 -0.15147085
-30.325357 72.570419 -58.540329 106.72888 21.571533 169.37914 -21.103737 -54.436031
190000000 -19.4004 -175.43909 -24.610928 -0.43856049 -54.998413 86.37767 -76.907921 73.28389
21.55781 168.91786 -21.228312 -56.186989 -29.316942 70.652435 -57.076038 88.174332
-55.661598 83.167168 -75.348312 -102.59969 -19.426245 -174.49289 -24.626656 -0.36321735
-29.942846 72.069611 -57.684677 85.177917 21.562624 169.09705 -21.308626 -55.062714
200000000 -19.305433 -177.01718 -24.559587 -0.97064847 -54.920063 77.51046 -73.322388 -54.139534
21.553505 168.60255 -21.354958 -57.639969 -28.910769 69.969849 -56.930832 80.868149
-53.980915 92.800179 -75.395561 1.9736953 -19.335165 -176.14278 -24.597946 -0.89521378
-29.376947 71.434166 -60.159702 96.839973 21.554874 168.79741 -21.512606 -56.458508
210000000 -19.279003 -179.11858 -24.643517 -1.1524014 -53.873497 85.896011 -71.801613 77.631836
21.542791 168.28665 -21.529221 -58.93224 -28.418531 69.844673 -55.599461 87.097122
-53.867821 71.282928 -69.54512 31.179609 -19.325804 -177.62529 -24.623091 -1.0497202
-29.151056 71.234177 -56.942257 91.908829 21.563446 168.36707 -21.556215 -57.378338
220000000 -19.143513 179.56535 -24.613361 -1.3176711 -56.150726 83.349579 -67.054077 111.84959
21.544228 167.95607 -21.638081 -60.175526 -28.112764 69.112869 -54.889542 89.068672
-53.688473 79.220978 -83.463524 4.038444 -19.254871 -179.0336 -24.646704 -1.2357802
-28.735184 70.960587 -55.323318 93.907898 21.561007 168.02151 -21.678539 -58.610325
230000000 -18.98848 177.93884 -24.653543 -1.6587607 -54.549675 78.99604 -74.706413 178.94341
21.534607 167.59795 -21.760941 -62.318386 -27.782001 68.537758 -55.438534 91.430298
-56.353771 77.913475 -71.164589 102.62238 -19.110498 179.29323 -24.637749 -1.4405529
-28.309805 69.760101 -55.636234 95.852875 21.555178 167.65553 -21.86702 -60.125717
240000000 -18.905495 176.37686 -24.603664 -1.8478129 -52.73785 81.356125 -75.008492 60.730408
21.533384 167.252 -21.91971 -63.447159 -27.323679 68.474503 -54.984982 85.355881
-53.614021 80.200272 -72.357399 177.44536 -19.01783 178.03662 -24.654331 -1.7109215
-28.016102 69.418564 -56.762188 88.061867 21.554045 167.29251 -21.903946 -61.567997
250000000 -18.808151 175.10214 -24.667065 -2.0564401 -52.054798 89.849258 -69.947632 103.5424
21.529877 166.89352 -22.01115 -65.490242 -27.059856 68.01899 -53.428261 96.698341
-54.152706 84.097878 -73.14193 119.98917 -18.921888 176.52637 -24.646935 -1.9056515
-27.746017 68.481277 -54.643101 99.177872 21.551098 166.94278 -22.002762 -62.95649
260000000 -18.620176 173.95486 -24.571871 -2.2500818 -51.074368 83.752029 -64.270569 106.50366
21.536161 166.50829 -22.002962 -67.616188 -26.680019 67.445465 -54.085239 90.343933
-53.355053 70.346169 -67.105827 114.92259 -18.873337 175.34685 -24.695091 -2.2049627
-27.208193 68.141518 -53.458263 89.405762 21.551378 166.60252 -22.194744 -64.817276
270000000 -18.613686 173.32718 -24.559549 -2.3893933 -51.493496 75.42804 -73.179741 86.818245
21.525806 166.15158 -22.114273 -69.380394 -26.422613 66.353325 -53.964745 85.984848
-52.454887 84.29052 -81.143944 -77.002098 -18.692894 174.12027 -24.59642 -2.424511
-26.999323 67.738213 -54.833229 97.18042 21.545649 166.23752 -22.186886 -66.838089
280000000 -18.42584 172.35756 -24.621801 -2.7854371 -50.636627 82.16732 -82.071136 78.024124
21.526302 165.7785 -22.072882 -71.136597 -26.133593 66.44239 -52.992294 94.364403
-51.59737 80.430122 -70.156296 132.32242 -18.605701 173.35512 -24.608826 -2.5058453
-26.703234 66.972595 -55.191387 69.614868 21.541666 165.8145 -22.13685 -68.525551
290000000 -18.378597 171.27791 -24.586092 -2.8277204 -50.364758 74.173218 -77.980316 39.984962
21.525339 165.40572 -22.098372 -72.642639 -25.899717 65.290672 -54.027981 83.869942
-52.756107 84.032288 -79.538094 -18.733652 -18.598083 172.19579 -24.661123 -2.6776874
-26.437489 66.854507 -55.431313 92.859047 21.536703 165.45656 -22.213373 -69.75589
300000000 -18.283791 169.86525 -24.6581 -3.0366151 -50.966053 76.454422 -72.263741 81.881905
21.520884 165.04659 -22.158926 -74.291695 -25.597137 64.874435 -52.691505 89.757866
-53.049129 77.750771 -64.654694 39.471172 -18.507706 171.37419 -24.634809 -3.2396412
-26.257549 65.556694 -53.066448 103.5201 21.539799 165.09587 -22.161585 -71.722183
310000000 -18.277451 169.65591 -24.632885 -3.4382782 -51.225285 74.543571 -69.368607 114.0471
21.51825 164.66266 -22.022495 -75.755875 -25.383335 64.604462 -51.383144 96.847672
-51.25148 81.994698 -75.217026 -136.2804 -18.387804 170.36765 -24.584394 -2.9784744
-25.940548 65.41713 -53.342785 87.754227 21.533007 164.67599 -22.111189 -73.256584
320000000 -18.122276 168.73456 -24.588955 -3.1393356 -51.070187 72.169617 -75.385674 -89.196159
21.517006 164.27888 -22.108215 -77.600853 -25.117857 63.934601 -52.43232 82.65567
-51.15213 75.195038 -71.631882 -75.833473 -18.31472 169.72757 -24.644928 -3.5585005
-25.712383 65.446121 -54.456356 95.999054 21.536201 164.29402 -22.118649 -74.827614
330000000 -18.081388 168.21828 -24.607254 -3.586838 -50.988651 78.60347 -88.090179 -24.757181
21.519522 163.86955 -22.076941 -78.42421 -24.829027 63.87698 -51.686234 82.924736
-52.224121 83.495407 -70.933197 -156.26057 -18.208958 168.84976 -24.55862 -3.952961
-25.430124 64.874588 -54.286602 93.464348 21.534914 163.88976 -22.123293 -76.745071
340000000 -18.037748 167.48372 -24.603907 -3.8857846 -49.880821 77.855988 -76.987015 82.489662
21.516703 163.45236 -21.982307 -79.927414 -24.571257 63.197632 -50.527664 98.444412
-50.357746 80.908012 -67.802765 89.598312 -18.146702 168.48364 -24.640179 -3.7510884
-25.013363 64.209709 -52.474586 88.5774 21.53363 163.51553 -22.115967 -77.751617
350000000 -18.00585 167.2563 -24.601238 -4.2421646 -48.990711 75.313843 -82.162071 5.2845912
21.512373 163.08417 -21.92296 -81.202812 -24.188471 62.526619 -52.171352 84.166016
-50.323303 83.682938 -70.313889 101.73508 -18.061193 168.14398 -24.626507 -4.2324033
-24.847775 64.141006 -52.762421 94.432381 21.52387 163.08376 -22.077826 -80.21357
360000000 -17.976563 166.46741 -24.583527 -4.1343141 -49.178406 78.182663 -69.358284 125.25567
21.510275 162.70961 -21.849575 -82.490829 -24.051201 61.715191 -51.240894 91.09198
-50.485561 77.356865 -74.485207 46.566906 -18.12166 167.42276 -24.634254 -4.2198968
-24.636166 63.088783 -51.249348 99.880074 21.535921 162.74814 -22.166496 -79.703674
370000000 -17.920343 165.85907 -24.57077 -4.3549824 -48.704689 74.506447 -67.948318 69.652534
21.5107 162.31268 -21.823994 -83.495613 -23.813004 61.095169 -51.168076 83.880928
-49.989647 81.321724 -76.949234 43.089664 -18.083935 167.44107 -24.543741 -4.7387323
-24.375051 62.360428 -52.192654 94.958496 21.537424 162.33115 -21.952291 -81.679405
380000000 -17.946211 165.49663 -24.553965 -4.349947 -48.753586 73.496918 -70.341774 -177.79793
21.511732 161.9247 -21.758055 -84.692993 -23.613825 60.752457 -51.161476 85.276871
-49.633556 77.412506 -78.703529 -152.71956 -18.0107 166.55777 -24.583839 -4.8124242
-24.187908 61.605751 -52.507061 94.364426 21.528164 161.91225 -21.96213 -83.110962
390000000 -17.913036 165.07555 -24.598515 -4.6042151 -48.825165 74.501686 -79.671547 142.26025
21.512905 161.52539 -21.717569 -85.899826 -23.381052 59.978283 -50.038948 88.24102
-50.298904 83.377243 -66.108536 127.56136 -17.973427 166.25743 -24.594955 -4.5441608
-23.951767 61.152863 -51.273571 87.916832 21.527349 161.48698 -21.853287 -84.421394
400000000 -17.958012 164.28918 -24.587181 -5.0819693 -48.560398 76.93586 -76.421555 38.910675
21.510704 161.13029 -21.582867 -86.104515 -23.18985 59.821209 -50.593868 81.373665
-50.083778 78.161148 -72.087952 83.000809 -17.978851 165.80077 -24.536282 -5.1570902
-23.764629 60.715828 -51.389019 89.471268 21.529835 161.12459 -21.856293 -84.858742
410000000 -17.930666 163.9101 -24.5896 -4.7646627 -47.540604 77.63343 -69.681763 143.14381
21.513155 160.71495 -21.508055 -86.897148 -22.974541 58.961029 -50.761211 90.279701
-48.906723 74.527298 -68.885323 58.659927 -17.892475 165.15021 -24.595695 -4.9833159
-23.512117 60.073406 -50.680183 89.961662 21.530239 160.70497 -21.969757 -86.365219
420000000 -17.968796 163.53989 -24.520935 -5.0727882 -47.507095 74.049484 -76.198608 170.7218
21.512064 160.26196 -21.403189 -88.194038 -22.707188 58.090256 -49.765324 90.367546
-49.201828 78.859764 -69.71106 65.190598 -17.956062 164.70146 -24.555286 -4.9820981
-23.325903 59.605724 -50.038185 88.934906 21.533068 160.30005 -21.954296 -87.170952
430000000 -17.938965 162.78418 -24.517849 -5.4290605 -47.646168 77.489677 -68.745819 114.64076
21.514036 159.89938 -21.356823 -89.184959 -22.561039 57.538265 -49.668419 85.759857
-48.77219 78.588615 -91.762024 31.662712 -17.893625 164.79649 -24.634418 -5.338583
-23.109779 58.889668 -50.851551 90.717644 21.533417 159.84451 -21.799026 -88.381149
440000000 -17.934849 162.2057 -24.572973 -5.4809904 -48.298862 74.967873 -71.651581 3.8972747
21.513502 159.50069 -21.346367 -90.275352 -22.379803 56.934284 -49.230999 89.525208
-49.154144 74.049812 -68.940979 75.252907 -17.8752 163.98743 -24.553085 -5.4067812
-22.95344 58.173916 -50.95187 93.303551 21.530001 159.46733 -21.841841 -89.792679
450000000 -17.918486 161.76071 -24.592024 -5.6787281 -47.923557 70.313675 -66.476196 169.05426
21.519329 159.06721 -21.201223 -91.512459 -22.179495 56.498077 -49.417259 86.235298
-48.160706 74.870941 -69.319466 146.21002 -17.865665 164.02927 -24.577309 -5.9912238
-22.754713 57.59103 -48.890202 85.266899 21.525507 159.09464 -21.715597 -91.133156
460000000 -17.935911 161.24261 -24.547684 -6.0379539 -47.363251 74.228455 -68.80835 130.74796
21.515188 158.6678 -21.097368 -92.206108 -22.016344 55.956604 -49.252651 89.193947
-49.265327 80.439331 -73.07296 136.62428 -17.924921 163.30928 -24.578527 -6.1286025
-22.597776 56.95118 -50.751728 85.672592 21.536043 158.63962 -21.652533 -91.933243
470000000 -17.922581 160.62737 -24.544939 -5.9008846 -47.732151 73.849785 -78.831375 42.683582
21.515095 158.24101 -21.023998 -92.938461 -21.834761 55.201252 -49.164238 83.947372
-48.119873 75.99585 -71.572601 12.615088 -17.919275 162.93652 -24.547022 -6.2538934
-22.355894 56.386627 -48.958271 87.662415 21.537832 158.24086 -21.572493 -92.582848
480000000 -17.965117 159.80617 -24.583038 -6.2585077 -47.169689 73.521965 -72.533684 94.470314
21.515539 157.8394 -20.973701 -93.990395 -21.650171 54.819664 -48.715679 84.196205
-48.457134 70.532936 -67.021103 104.31138 -17.907818 162.71367 -24.556686 -6.253335
-22.198366 55.951183 -49.741798 89.528664 21.541162 157.8186 -21.475643 -93.3815
490000000 -17.917231 158.98732 -24.510164 -6.3575873 -46.925503 74.1996 -71.059334 110.43612
21.523203 157.41666 -20.818949 -94.705086 -21.454018 54.020813 -48.716412 85.103271
-48.169209 73.798218 -69.056145 162.01088 -17.883495 161.80653 -24.546886 -6.6227646
-22.027441 55.384418 -49.406723 88.01461 21.54096 157.43158 -21.393103 -94.824394
500000000 -17.905687 158.41685 -24.489878 -6.7691555 -46.776394 71.298363 -72.480309 -33.598537
21.516504 157.00017 -20.732237 -95.876572 -21.283365 53.632687 -47.859829 77.686852
-47.521065 79.778816 -74.584648 -71.865547 -17.853027 161.22624 -24.572138 -6.787343
-21.875433 55.000065 -49.499607 87.281548 21.536922 156.98994 -21.329195 -95.700172
510000000 -17.922691 157.92439 -24.510031 -6.7043166 -46.636093 73.761955 -67.046684 139.29895
21.520538 156.55608 -20.58993 -96.762154 -21.167362 52.931919 -48.140621 87.339233
-47.153744 73.396759 -72.868874 -124.32275 -17.872604 160.72064 -24.516392 -7.0817785
-21.710194 54.118267 -49.291161 87.824211 21.538347 156.57324 -21.213055 -97.50312
520000000 -17.795296 157.5451 -24.530994 -6.8578587 -46.785034 72.345505 -75.338814 102.77746
21.522598 156.13376 -20.481274 -98.469162 -20.946018 52.472595 -47.617332 85.535873
-47.446541 73.096512 -70.924797 102.06738 -17.837912 160.28568 -24.529867 -7.2165833
-21.525864 53.562885 -48.721836 86.655014 21.53721 156.10394 -21.11499 -98.414398
530000000 -17.810303 156.96805 -24.511591 -7.123724 -47.0896 74.441315 -71.886131 64.099518
21.52095 155.72455 -20.417952 -99.903229 -20.814596 51.750046 -47.581409 84.315781
-47.470619 73.6679 -72.124275 66.2649 -17.818554 159.614 -24.513002 -6.9411135
-21.355576 53.003288 -48.61544 86.456535 21.541512 155.69228 -21.002171 -100.11638
540000000 -17.777952 156.23239 -24.467529 -7.4727502 -45.61232 72.669136 -80.309853 173.26004
21.524223 155.28426 -20.234133 -101.04624 -20.656729 51.111389 -46.855049 84.976295
-46.526196 74.442444 -74.50544 -0.35772941 -17.787533 158.923 -24.516626 -7.6145606
-21.194546 52.389069 -48.683479 86.863907 21.550251 155.26469 -20.910807 -101.7568
550000000 -17.738585 155.43077 -24.488672 -7.6475215 -46.501209 71.253578 -81.838058 116.76598
21.52216 154.86627 -20.216873 -101.99727 -20.507717 50.282608 -46.850479 84.227028
-47.061787 75.937202 -68.641594 70.773537 -17.729622 158.54686 -24.561953 -7.5452352
-21.035667 51.769699 -47.912624 88.531326 21.5481 154.8446 -20.727495 -102.3255
