!Mini-Circuits Laboratory
!S-Parameters
!Model: MGVA-63+
!Run / Lot / Date Code: NA / AH404P001-04 / 1348
!Fixture: NA; TB-561+
!AUTO PORT EXTENSION DONE: PORT<1>=113.62ps; PORT<2>=112.79ps; PORT<3>=112.29ps; PORT<4>=112.3ps
!Network Analyzer: PNA-X N5242A - 423 4 ports;  Serial number: 71256
!Date: 2/10/20114
!S/N: Unit# 1
!Correction: S11(Full 4 Port(1,2,3,4)) 
!S12(Full 4 Port(1,2,3,4)) 
!S13(Full 4 Port(1,2,3,4)) 
!S14(Full 4 Port(1,2,3,4)) 
!S21(Full 4 Port(1,2,3,4)) 
!S22(Full 4 Port(1,2,3,4)) 
!S23(Full 4 Port(1,2,3,4)) 
!S24(Full 4 Port(1,2,3,4)) 
!S31(Full 4 Port(1,2,3,4)) 
!S32(Full 4 Port(1,2,3,4)) 
!S33(Full 4 Port(1,2,3,4)) 
!S34(Full 4 Port(1,2,3,4)) 
!S41(Full 4 Port(1,2,3,4)) 
!S42(Full 4 Port(1,2,3,4)) 
!S43(Full 4 Port(1,2,3,4)) 
!S44(Full 4 Port(1,2,3,4)) 
!S4P File: Measurements: <S11,S12,S13,S14>,
!<S21,S22,S23,S24>,
!<S31,S32,S33,S34>,
!<S41,S42,S43,S44>:
# Hz S  dB   R 50
10000000 -11.033259 -47.560242 -27.899525 16.419565 -34.259644 55.15369 -44.23151 58.47282
24.402939 168.95676 -6.4121656 -29.600603 -23.493908 70.713173 -33.839558 74.900917
-35.284447 -25.376059 -47.591534 -54.673656 -11.532767 -45.230961 -27.343893 27.338486
-25.258982 -18.652992 -37.192337 -49.799633 24.381969 168.43138 -6.6649528 -27.856649
20000000 -13.73612 -79.813858 -25.910959 17.865948 -60.324631 24.897552 -65.684166 26.88273
23.226185 166.33739 -9.2858219 -46.706757 -47.246605 52.169403 -59.092316 -42.147732
-63.763897 120.78558 -68.695488 163.8728 -13.746897 -78.950066 -25.859903 18.378744
-43.687023 80.081711 -56.060574 145.75484 23.243473 166.31448 -9.2904472 -45.647552
30000000 -15.447954 -99.783501 -25.154915 13.779391 -77.194611 -106.50244 -74.884399 30.594152
22.51656 167.14009 -11.636184 -53.877312 -43.737316 70.607201 -66.886566 -179.98442
-65.648087 9.3905172 -73.650246 107.76226 -15.361828 -99.596031 -25.308628 14.126612
-44.561108 73.497025 -68.71302 23.752428 22.532549 167.03757 -11.686042 -53.595295
40000000 -16.592726 -114.10325 -24.911831 10.136982 -65.257256 118.8765 -68.501945 -18.834923
22.13168 168.2966 -13.49968 -56.918461 -41.73513 68.616508 -67.717583 65.120689
-62.792103 98.242027 -71.428833 -106.47799 -16.613056 -113.70805 -24.891003 10.135942
-42.956379 72.542259 -72.984169 -29.6714 22.141581 168.25029 -13.497389 -56.558128
50000000 -17.483103 -123.61909 -24.955143 7.6593623 -65.679085 -80.700424 -58.886215 -1.8488203
21.917315 169.26831 -14.892452 -57.215363 -40.241261 70.115295 -64.076622 58.135975
-66.370796 -35.285034 -59.642467 -137.63737 -17.368793 -123.52355 -24.657387 7.7695556
-41.562191 69.454643 -65.71788 -172.9707 21.910782 169.16331 -14.982213 -56.959396
60000000 -18.173557 -132.76207 -24.657784 8.097312 -59.082157 168.64934 -56.144695 -139.93768
21.744446 170.00745 -16.007395 -57.374718 -39.095802 69.066437 -67.213829 -48.910652
-61.101315 124.03818 -72.250969 116.47665 -18.04632 -131.75177 -24.719326 6.4303899
-39.387989 83.055099 -55.31057 94.664085 21.765024 170.23032 -16.024517 -57.403282
70000000 -18.584707 -137.8806 -24.618797 5.2148156 -63.965946 62.117226 -84.541908 -27.253031
21.675131 170.41563 -16.847403 -56.473568 -37.462811 72.889694 -65.869629 60.374039
-62.057541 110.24481 -75.149582 -151.63411 -18.628281 -136.99019 -24.675514 5.4626064
-38.273697 75.251312 -86.234642 83.983391 21.681061 170.57312 -16.870789 -55.82193
80000000 -18.985134 -143.10913 -24.596403 4.8164082 -64.418777 103.76676 -76.06929 7.2168813
21.61668 170.66055 -17.54501 -55.70261 -36.823349 73.380035 -65.714287 77.925514
-61.816978 90.162003 -72.308846 143.2086 -19.016644 -141.99959 -24.608833 4.4204106
-37.329918 76.617523 -64.312798 104.77827 21.62369 170.82819 -17.52161 -54.572292
90000000 -19.313976 -146.91147 -24.574389 3.7821696 -61.896923 116.71346 -74.418823 -92.897766
21.57284 170.8224 -18.049805 -54.282566 -35.814259 74.162498 -65.987206 88.546638
-62.67178 85.280182 -66.478371 130.57158 -19.375921 -146.23544 -24.559813 3.5798354
-36.234638 74.799324 -60.177193 85.137939 21.581795 170.98897 -18.056767 -53.309246
100000000 -19.639908 -150.56007 -24.608519 3.277283 -61.868027 87.518959 -79.030479 -49.936489
21.542974 170.8414 -18.497866 -52.943363 -34.904858 73.666931 -65.827728 93.083443
-62.534237 74.924721 -67.356987 139.04407 -19.654037 -149.49687 -24.589401 3.0231731
-35.536751 75.792763 -61.031277 79.928032 21.548754 170.98953 -18.455282 -52.357788
110000000 -19.879129 -153.75992 -24.623579 2.6503479 -59.75708 85.383575 -74.726822 -106.10823
21.520254 170.76717 -18.824469 -51.766438 -34.18882 74.232689 -63.930866 74.718719
-62.227917 67.708275 -73.928024 -156.49171 -19.873407 -152.96202 -24.564699 2.3049126
-34.957325 75.842194 -62.93898 94.819862 21.530451 170.8766 -18.83511 -51.261234
120000000 -20.048607 -156.96968 -24.512775 1.9032416 -58.922329 87.261093 -77.446724 -171.83694
21.498304 170.65926 -19.087864 -51.355175 -33.33559 73.414734 -64.666237 82.485802
-61.735462 77.08075 -69.158508 -179.21594 -20.119944 -156.39865 -24.536205 1.9243056
-33.914017 74.601784 -60.007404 100.06327 21.513605 170.79916 -19.167696 -50.214943
130000000 -20.169331 -160.3343 -24.319975 1.5675864 -57.982025 79.695381 -63.811188 -155.9621
21.477146 170.5341 -19.384466 -50.71711 -32.602676 73.203949 -65.112709 70.912003
-62.70549 78.851845 -64.489555 133.82904 -20.331621 -158.95656 -24.5492 1.5427155
-33.121464 74.556473 -62.450142 65.839867 21.495047 170.599 -19.344019 -49.707081
140000000 -20.390602 -162.29382 -24.511293 1.0873197 -58.437332 78.403923 -71.139061 165.30748
21.471676 170.32394 -19.576712 -50.034401 -32.035706 72.803833 -61.063969 87.414581
-58.344849 72.682716 -76.186119 43.540493 -20.470955 -161.43806 -24.538786 1.2250743
-32.572575 73.725075 -61.563179 85.889679 21.488607 170.41241 -19.559639 -49.009586
150000000 -20.450626 -164.77979 -24.556406 0.69186872 -56.462627 93.625656 -70.182495 -137.32195
21.461699 170.13719 -19.793867 -49.859066 -31.461018 73.528397 -60.231804 90.178284
-55.262333 73.372314 -74.337151 -57.327282 -20.50486 -164.35854 -24.526682 0.58956409
-31.938026 73.734459 -61.210793 97.891304 21.469194 170.30299 -19.755831 -48.804203
160000000 -20.499687 -167.30473 -24.518507 0.39881569 -57.675625 81.361084 -77.38282 -133.20851
21.455591 169.88765 -19.97714 -49.763577 -31.070581 72.141533 -58.765884 88.256683
-56.377842 93.089523 -69.223007 81.592201 -20.50696 -166.12634 -24.552372 0.42875564
-31.563522 73.544632 -60.970387 87.073189 21.460098 170.03 -19.932739 -48.926132
170000000 -20.450781 -169.3139 -24.50001 0.16223231 -55.131706 82.236473 -77.660126 91.864525
21.448076 169.59592 -20.138641 -50.375538 -30.423971 71.892235 -60.31916 83.408768
-56.592026 84.977325 -77.776512 58.562126 -20.523798 -168.33302 -24.48089 0.065610431
-31.021809 72.60527 -59.792706 91.13279 21.457249 169.7532 -20.116335 -49.119881
180000000 -20.454363 -171.55225 -24.490479 -0.15907134 -55.870407 77.649651 -78.680542 -160.12971
21.441288 169.3318 -20.307112 -50.602501 -30.006186 71.331696 -58.13269 81.275169
-55.614059 93.867599 -89.378365 166.38129 -20.50276 -170.40689 -24.540274 -0.16938832
-30.553364 72.616356 -58.050701 88.916489 21.451601 169.4549 -20.30578 -49.838177
190000000 -20.427408 -173.58968 -24.559862 -0.24727876 -56.260372 81.652412 -70.586853 132.17912
21.440567 169.01968 -20.474054 -51.433403 -29.568657 70.759117 -56.17984 85.673012
-55.113945 86.291 -71.165833 82.356407 -20.42765 -172.59509 -24.500746 -0.32283968
-30.094181 72.410812 -58.336052 85.232841 21.443291 169.16901 -20.494862 -50.367641
200000000 -20.341034 -175.17198 -24.516716 -0.64018297 -55.32811 78.361549 -79.380722 -76.632828
21.43597 168.70692 -20.605867 -52.71954 -29.17684 70.498642 -57.612732 87.177444
-56.20409 84.932022 -81.421822 98.506271 -20.34767 -174.64413 -24.526173 -0.93734527
-29.745752 71.95826 -56.723862 88.537575 21.437563 168.8768 -20.712507 -51.582401
210000000 -20.264025 -177.44975 -24.520239 -1.0182033 -55.391792 73.83181 -75.336731 -11.955806
21.427635 168.39891 -20.743975 -53.672173 -28.730526 69.504967 -56.407829 90.618706
-54.819767 75.193871 -81.995659 12.220198 -20.331892 -176.18941 -24.527578 -1.3247073
-29.310377 71.557312 -57.939705 100.77647 21.444748 168.45749 -20.765776 -52.217392
220000000 -20.112457 -179.11081 -24.49559 -0.95880306 -53.303242 87.72467 -72.230881 51.809395
21.426996 168.06773 -20.851715 -55.037388 -28.397711 69.720825 -54.970768 91.51545
-53.713894 89.902496 -67.201248 103.10769 -20.228815 -177.76146 -24.45467 -1.2794963
-28.886433 70.544632 -58.286812 92.794716 21.441437 168.10556 -20.881897 -53.48217
230000000 -19.968828 179.04695 -24.516314 -1.3606645 -52.818081 78.193672 -70.528954 80.659264
21.420155 167.72304 -20.997658 -56.755318 -27.981522 69.402298 -55.770058 87.595444
-54.378124 78.227501 -86.116547 -33.132545 -20.071234 -179.3414 -24.505043 -1.4102067
-28.585348 70.274506 -57.145401 90.397125 21.435966 167.744 -21.075602 -54.989769
240000000 -19.880497 177.47734 -24.521854 -1.7448601 -53.121735 82.138588 -71.960655 -12.555192
21.418575 167.36917 -21.117807 -58.148277 -27.604527 68.61618 -55.148285 83.929207
-53.013332 80.267334 -72.56144 168.95898 -19.983923 179.3717 -24.481348 -1.6506379
-28.184799 69.603386 -57.012203 108.12743 21.43611 167.38182 -21.130617 -56.039497
250000000 -19.727049 175.87163 -24.495573 -2.091258 -52.163773 84.292068 -69.118469 67.892845
21.415129 167.01045 -21.198877 -59.599922 -27.293898 68.018585 -52.566441 86.120125
-52.406994 83.627914 -67.125778 -2.6908882 -19.897902 177.58891 -24.471504 -1.9946899
-27.796972 69.045631 -55.055946 76.201584 21.432087 167.03592 -21.223417 -57.131279
260000000 -19.574276 174.80505 -24.482395 -2.3752787 -51.491158 73.382332 -70.833771 2.524174
21.419384 166.64186 -21.312658 -61.48341 -26.972279 67.048241 -54.642365 89.591194
-52.931458 85.004311 -64.734421 -0.98250854 -19.759598 176.22231 -24.509136 -1.7675785
-27.522472 68.398682 -59.631054 84.778 21.434496 166.68564 -21.392986 -58.577259
270000000 -19.523176 173.65683 -24.498596 -2.0921471 -53.261803 77.51844 -73.761017 -125.6614
21.412148 166.26392 -21.334652 -63.492634 -26.699299 66.893265 -53.875916 93.822067
-54.686932 75.646156 -80.546272 31.670328 -19.641182 175.29556 -24.487032 -2.0315895
-27.248304 67.924904 -54.724453 80.125648 21.429306 166.33936 -21.451168 -60.454216
280000000 -19.378841 173.04919 -24.408575 -2.6550043 -51.782352 80.415291 -68.487938 136.36601
21.411236 165.90428 -21.353548 -64.976479 -26.350603 66.171478 -53.803806 97.353104
-53.741817 86.208504 -75.95871 97.862373 -19.468634 174.55676 -24.471935 -2.2865639
-26.940439 67.729988 -53.858379 77.599174 21.426445 165.89972 -21.405045 -62.608273
290000000 -19.285877 171.86459 -24.445108 -2.9799528 -51.417946 76.173805 -76.266983 -168.44722
21.409817 165.52545 -21.392336 -66.350815 -26.129723 65.788689 -53.66296 97.710144
-51.363853 81.719803 -74.1614 -90.872375 -19.470146 172.92133 -24.468147 -2.6043718
-26.635141 66.509125 -55.212635 90.601257 21.420925 165.56862 -21.441994 -64.205704
300000000 -19.131657 170.46608 -24.462641 -2.9262874 -51.992809 75.984619 -69.330292 94.996796
21.406366 165.16772 -21.515039 -67.805054 -25.82703 65.424477 -54.263954 89.289406
-51.197308 88.664238 -71.430466 31.531576 -19.420843 172.24677 -24.476204 -3.0807321
-26.414265 66.501938 -52.721729 89.474846 21.425741 165.19147 -21.457962 -65.518082
310000000 -19.127777 170.07857 -24.424389 -3.183423 -51.302097 81.786827 -75.378418 107.76743
21.404989 164.79543 -21.36495 -69.133934 -25.562046 64.621979 -53.698288 86.0336
-51.96632 74.089584 -71.044807 69.05262 -19.281996 171.07051 -24.467091 -3.1792076
-26.132168 65.694824 -54.464531 83.090065 21.418108 164.77246 -21.436388 -67.149986
320000000 -18.979429 169.47565 -24.51856 -3.192158 -51.001129 77.137383 -72.673126 -106.70295
21.402529 164.41869 -21.441406 -71.158752 -25.373205 64.277573 -52.793037 83.108994
-52.181213 84.961319 -67.777016 68.608704 -19.150232 170.12274 -24.493774 -3.4440508
-25.871307 66.218109 -55.01503 82.924187 21.420059 164.39856 -21.451412 -68.437302
330000000 -18.936386 168.69943 -24.530664 -3.5573459 -50.948631 83.097961 -78.466599 138.26048
21.405426 164.0118 -21.393654 -72.326096 -25.072853 64.394669 -51.722336 87.922386
-51.276974 82.490952 -73.364479 112.90662 -19.125422 169.62614 -24.445179 -3.4722416
-25.64023 65.40332 -52.846371 88.427315 21.419214 163.99612 -21.501087 -70.481033
340000000 -18.860765 167.94028 -24.44927 -3.7136614 -49.216385 80.286835 -76.298897 26.987234
21.400038 163.58301 -21.366604 -73.807915 -24.765162 63.254818 -51.628849 92.521072
-50.901901 76.675079 -79.089752 -113.6414 -19.011387 169.18623 -24.487339 -3.7413762
-25.281076 64.657249 -52.803894 91.799927 21.418873 163.6174 -21.421085 -71.577271
350000000 -18.929596 168.00769 -24.463135 -3.70823 -49.321297 75.766205 -72.744514 -103.26715
21.397541 163.2253 -21.368858 -75.091789 -24.436899 63.191422 -53.683548 90.940872
-50.711231 74.992996 -67.336449 139.94043 -18.977343 168.97417 -24.528847 -4.1315351
-25.032162 63.78006 -52.466812 92.837265 21.409113 163.19833 -21.482643 -73.606262
360000000 -18.822893 167.07556 -24.481041 -4.1749692 -50.075691 78.73233 -71.774345 147.76604
21.396734 162.85713 -21.279305 -75.780647 -24.278732 62.428638 -51.03875 89.751526
-49.82016 77.79763 -81.178848 176.78043 -18.993755 167.84227 -24.486263 -3.9658902
-24.870344 62.95171 -52.253799 88.812851 21.421518 162.86696 -21.438314 -73.263855
370000000 -18.745646 166.37134 -24.462545 -4.455195 -49.608292 75.382034 -69.221146 138.146
21.397877 162.46513 -21.220736 -77.147354 -24.034355 61.555073 -51.539551 87.41935
-49.919807 80.361382 -72.229881 80.164078 -18.927414 168.03377 -24.508854 -3.9821928
-24.607979 62.731949 -51.605785 100.51469 21.422762 162.44157 -21.301325 -75.211739
380000000 -18.784655 165.94312 -24.414633 -4.2378411 -49.106949 75.844551 -68.50174 59.287975
21.399786 162.06958 -21.231871 -78.030418 -23.845306 61.107864 -50.290123 91.622154
-49.949284 74.480553 -66.506538 33.799515 -18.890617 167.01892 -24.499472 -4.3823786
-24.380756 62.113884 -51.816029 89.765877 21.414232 162.04063 -21.341026 -76.586929
390000000 -18.747213 165.34154 -24.439861 -4.3476877 -48.63118 76.199333 -77.381783 143.45189
21.400883 161.67796 -21.169756 -79.355934 -23.655594 60.394459 -50.367756 89.437889
-49.591465 74.846848 -70.586411 -123.60882 -18.838512 166.84918 -24.45175 -4.6024899
-24.120401 61.767506 -51.340839 85.787529 21.413952 161.59477 -21.266869 -77.763687
400000000 -18.777405 164.69553 -24.478178 -5.048398 -48.464195 75.041176 -73.239479 -133.50591
21.398895 161.28114 -21.028807 -79.819557 -23.385862 59.564804 -50.608326 82.438866
-48.882778 78.274818 -66.091133 90.829498 -18.840899 166.50659 -24.431299 -4.7702413
-23.935463 61.330673 -51.542744 89.409225 21.417105 161.23882 -21.29355 -78.709259
410000000 -18.797173 164.38208 -24.433313 -5.1530519 -48.55608 73.310913 -85.021416 160.83624
21.400352 160.87459 -20.998358 -80.348473 -23.208897 59.212639 -51.274048 84.695747
-49.425201 80.508522 -69.519135 125.03907 -18.752438 165.70827 -24.460829 -5.0395303
-23.759151 60.636097 -50.864361 84.143562 21.414892 160.82388 -21.410671 -79.965591
420000000 -18.768017 164.17215 -24.451727 -4.9863763 -49.531746 75.538628 -76.03862 164.22607
21.400846 160.43335 -20.904837 -82.08976 -23.011471 58.797062 -49.917103 84.393089
-49.91394 76.192543 -81.177467 150.95836 -18.792669 165.38245 -24.456398 -5.1135135
-23.53364 59.821304 -51.065968 92.733223 21.418892 160.41908 -21.318342 -80.587578
430000000 -18.779799 163.39832 -24.481649 -5.0335846 -48.882839 75.553299 -91.053703 82.740746
21.402557 160.05971 -20.814966 -82.869812 -22.810686 57.982037 -49.590244 90.510323
-50.248863 75.425278 -65.418701 136.42776 -18.754961 165.55881 -24.475496 -5.2852731
-23.366074 59.080849 -49.720295 90.898323 21.419905 159.95673 -21.213432 -81.426132
440000000 -18.773375 162.41881 -24.450901 -5.3726559 -47.970951 75.785103 -68.858864 62.580284
21.401535 159.66216 -20.820503 -83.973244 -22.605425 57.748184 -49.20417 85.646759
-48.834198 85.114754 -67.564102 72.882286 -18.7379 164.3143 -24.406733 -5.309154
-23.147831 58.703129 -50.086056 84.22821 21.41638 159.60292 -21.273104 -83.238701
450000000 -18.787315 162.45218 -24.425835 -5.4906745 -47.729214 76.578247 -72.990761 171.49487
21.405993 159.21655 -20.733461 -84.876724 -22.388914 56.921413 -49.880589 94.038834
-48.388309 81.290833 -66.113213 86.833443 -18.692074 164.44994 -24.457275 -5.5231638
-23.035124 58.222034 -50.99567 89.375725 21.412201 159.22412 -21.186588 -84.499107
460000000 -18.748234 161.42448 -24.406059 -5.7764425 -47.605583 75.904427 -71.926506 85.055893
21.405062 158.83568 -20.622492 -86.155754 -22.223595 56.39463 -49.564861 89.400818
-48.395794 73.588356 -68.975281 50.576927 -18.761488 164.0114 -24.447414 -6.0058947
-22.781473 57.643867 -50.235111 92.46669 21.42417 158.75821 -21.125851 -85.342972
470000000 -18.768099 161.30121 -24.434959 -5.6246629 -47.44606 75.543831 -72.606621 108.61372
21.402399 158.42227 -20.54228 -86.714493 -22.044468 55.676327 -49.327549 84.906372
-49.249672 77.595222 -71.478851 -117.72543 -18.766842 163.66872 -24.399719 -5.8112469
-22.580421 56.916439 -50.192276 88.690742 21.425367 158.36388 -21.05307 -85.974388
480000000 -18.776064 160.3102 -24.388926 -6.006249 -47.219868 72.732468 -82.393471 64.015686
21.403585 157.99437 -20.504604 -87.819824 -21.907068 55.252518 -49.352634 85.931801
-48.472694 78.405426 -76.19976 56.803429 -18.740311 163.11249 -24.446636 -6.5335431
-22.391611 56.316105 -49.655876 87.987999 21.427349 157.95537 -20.98225 -87.097572
490000000 -18.781458 159.28059 -24.388927 -6.1155353 -47.19141 74.684517 -83.89164 131.14316
21.411087 157.59698 -20.373575 -88.648895 -21.711309 54.51059 -48.603554 85.413033
-48.295574 76.812698 -72.09127 -62.309357 -18.731468 162.52785 -24.448538 -6.4219637
-22.229836 55.870243 -48.787319 92.212326 21.428724 157.55556 -20.927418 -88.078865
500000000 -18.74407 158.80122 -24.388557 -6.3123374 -46.996468 76.655182 -69.69252 86.087311
21.408852 157.17793 -20.285952 -90.038643 -21.543188 54.051548 -48.240883 91.612045
-48.465534 69.488922 -69.671501 72.838455 -18.699614 161.8121 -24.393002 -6.3139944
-22.11109 55.25222 -48.973469 90.371529 21.426067 157.13477 -20.842991 -89.185387
510000000 -18.751934 158.13004 -24.411371 -6.1775427 -47.519844 73.555847 -66.99028 102.96196
21.409908 156.74034 -20.189623 -91.014122 -21.364702 53.212692 -48.146461 84.890312
-47.858978 75.045464 -72.660973 128.76494 -18.718571 161.42648 -24.43725 -6.6604443
-21.889194 54.421326 -49.17207 89.212921 21.425797 156.71155 -20.775429 -91.049454
520000000 -18.673159 157.86694 -24.36862 -6.7839885 -46.924995 73.921005 -70.236824 107.18773
21.411825 156.3098 -20.051392 -92.515785 -21.203365 52.632805 -48.077354 88.301003
-47.49239 74.723946 -71.422661 142.03723 -18.654287 160.8607 -24.409018 -6.8977571
-21.755733 53.909584 -48.204399 91.537956 21.424791 156.23952 -20.682716 -92.129578
530000000 -18.599758 157.40051 -24.387531 -7.0381532 -46.857182 72.023888 -72.192886 92.095245
21.412865 155.93112 -19.980579 -93.697441 -21.054283 52.1716 -48.277302 85.786354
-47.183907 76.420074 -79.937531 -156.04686 -18.638075 160.29561 -24.432909 -6.8893414
-21.568775 53.366627 -48.82663 93.998611 21.430578 155.8588 -20.595371 -93.759308
540000000 -18.635426 156.56407 -24.381575 -7.2457423 -46.627571 72.149384 -72.121361 84.978638
21.412756 155.46739 -19.84553 -95.054001 -20.864058 51.261242 -47.576622 83.423698
-47.591976 70.77803 -68.698486 40.409519 -18.604847 159.53117 -24.418745 -7.2928519
-21.420086 52.670799 -48.696938 90.413651 21.439117 155.40778 -20.545105 -95.235817
550000000 -18.616608 155.63818 -24.387497 -7.2852464 -46.045143 72.111595 -72.572517 3.3794854
21.41239 155.05721 -19.84824 -96.039513 -20.740736 50.727398 -47.628448 80.822342
-46.712936 75.455437 -78.109612 78.72995 -18.549986 159.0433 -24.38727 -7.5519986
-21.296259 52.029488 -48.100048 91.561142 21.435116 154.98715 -20.327948 -96.099632
