!Mini-Circuits Laboratory
!S-Parameters
!Model: MGVA-63+
!Run / Lot / Date Code: NA / AH404P001-04 / 1348
!Fixture: NA; TB-561+
!AUTO PORT EXTENSION DONE: PORT<1>=113.62ps; PORT<2>=112.79ps; PORT<3>=112.29ps; PORT<4>=112.3ps
!Network Analyzer: PNA-X N5242A - 423 4 ports;  Serial number: 71256
!Date: 2/10/20114
!S/N: Unit# 1
!Correction: S11(Full 4 Port(1,2,3,4)) 
!S12(Full 4 Port(1,2,3,4)) 
!S13(Full 4 Port(1,2,3,4)) 
!S14(Full 4 Port(1,2,3,4)) 
!S21(Full 4 Port(1,2,3,4)) 
!S22(Full 4 Port(1,2,3,4)) 
!S23(Full 4 Port(1,2,3,4)) 
!S24(Full 4 Port(1,2,3,4)) 
!S31(Full 4 Port(1,2,3,4)) 
!S32(Full 4 Port(1,2,3,4)) 
!S33(Full 4 Port(1,2,3,4)) 
!S34(Full 4 Port(1,2,3,4)) 
!S41(Full 4 Port(1,2,3,4)) 
!S42(Full 4 Port(1,2,3,4)) 
!S43(Full 4 Port(1,2,3,4)) 
!S44(Full 4 Port(1,2,3,4)) 
!S4P File: Measurements: <S11,S12,S13,S14>,
!<S21,S22,S23,S24>,
!<S31,S32,S33,S34>,
!<S41,S42,S43,S44>:
# Hz S  dB   R 50
10000000 -11.618573 -48.481621 -27.154474 22.034107 -36.216499 139.95941 -46.569687 148.3201
24.493063 169.07889 -6.5842237 -27.5991 -26.11253 152.32385 -36.182465 163.59743
-38.7197 24.706789 -46.444412 14.945828 -11.853107 -48.822235 -28.050669 26.825836
-28.978374 29.312178 -36.751629 19.793533 24.473391 168.71143 -6.869029 -29.560625
20000000 -13.718979 -82.731026 -26.006872 17.854912 -67.987419 -15.869905 -60.111759 47.117298
23.301657 166.41402 -9.3881292 -48.018108 -44.826122 46.299721 -55.599636 41.954834
-59.038807 126.76207 -64.163208 125.69316 -13.817275 -81.774147 -25.887663 18.60483
-44.562786 66.198784 -70.744125 57.569714 23.317844 166.37338 -9.4283619 -46.899002
30000000 -15.290408 -104.06611 -25.219921 13.418062 -64.127815 95.885185 -68.888107 89.091393
22.586176 167.14729 -11.848078 -56.152405 -42.707127 64.887833 -69.600418 102.99415
-63.412746 97.891068 -64.473541 -132.67664 -15.227174 -103.83958 -25.194075 13.254147
-44.054935 70.617203 -60.227421 150.87677 22.601 167.01857 -11.863737 -56.07188
40000000 -16.231386 -119.05301 -24.939638 10.349937 -62.744259 81.095825 -72.323807 62.092583
22.194309 168.28836 -13.819504 -60.049984 -41.305237 69.30793 -73.689964 104.33488
-75.345154 140.01561 -65.836098 40.571274 -16.261707 -118.8025 -24.978224 10.250201
-42.365376 74.277458 -67.513252 21.527424 22.201998 168.22287 -13.86247 -59.828461
50000000 -16.978903 -130.33377 -24.801218 7.2482557 -63.758595 46.570305 -57.314484 82.562767
21.974073 169.27779 -15.366323 -60.951469 -39.557636 69.566315 -64.783806 85.607094
-55.88393 137.92099 -59.642727 -50.111656 -16.89566 -129.3568 -24.789873 9.2249155
-40.654167 76.022011 -67.218857 -13.690064 21.965754 169.14616 -15.502178 -61.149624
60000000 -17.597588 -138.04153 -25.030607 6.9406319 -62.221378 -25.112572 -56.402195 -39.862022
21.799068 170.0639 -16.592184 -62.041641 -38.275307 69.885376 -60.546577 61.865013
-68.078094 89.83239 -77.527718 77.845551 -17.349735 -138.26736 -24.850775 7.0287137
-38.786335 69.386116 -57.350563 148.08678 21.8123 170.20824 -16.585945 -62.17728
70000000 -17.724062 -144.3978 -24.735331 5.7671051 -63.923866 48.142372 -82.735321 -86.157257
21.723108 170.50089 -17.662598 -62.637493 -37.316433 71.003914 -68.227798 83.228088
-64.709297 58.379143 -70.244339 110.48318 -17.719275 -143.91341 -24.69813 5.2231984
-37.918606 71.662895 -62.780289 122.01477 21.726324 170.57826 -17.665951 -62.024807
80000000 -17.932932 -149.73634 -24.720745 4.7881823 -65.716621 97.009773 -75.321823 146.87822
21.661615 170.77049 -18.449995 -62.516846 -36.461189 71.359215 -60.399662 75.035065
-61.80547 109.72429 -68.109825 -157.65207 -17.948536 -149.00761 -24.663393 4.5898976
-37.102467 73.943451 -65.883881 82.43644 21.663713 170.85872 -18.501781 -61.703671
90000000 -18.09107 -153.8905 -24.667206 3.6956651 -62.734489 68.944016 -71.998123 -4.2389741
21.614944 170.9409 -19.181963 -62.212997 -35.53857 71.990852 -68.44709 63.529408
-60.88818 94.858582 -70.55162 27.918999 -18.108526 -153.44389 -24.69805 4.1430931
-35.896793 73.730995 -63.368885 101.03432 21.617563 171.0477 -19.212223 -61.350121
100000000 -18.20612 -157.67032 -24.649527 3.0938432 -61.940983 90.664017 -69.292236 -0.33231857
21.582922 170.99037 -19.746464 -61.885502 -34.577347 72.924202 -62.266575 69.212265
-60.202015 95.814751 -68.127937 -146.00592 -18.211376 -156.9304 -24.604361 3.5476904
-35.200714 75.176208 -63.539696 107.84281 21.582373 171.07016 -19.763815 -61.129688
110000000 -18.270618 -160.98114 -24.66853 2.730005 -60.170559 76.575752 -69.134941 -51.760448
21.557722 170.94643 -20.257103 -61.31905 -33.923626 73.227936 -59.566963 83.663498
-57.221996 99.339828 -66.753021 -95.975418 -18.255424 -160.29559 -24.602383 2.6234419
-34.52224 74.738304 -62.723812 90.577003 21.560316 170.99214 -20.300879 -60.923279
120000000 -18.304037 -163.88907 -24.620426 2.4068189 -58.888805 84.049316 -80.667465 -17.513359
21.531839 170.85869 -20.612919 -61.407444 -33.091557 72.915436 -61.082817 74.5597
-60.006752 92.086548 -70.752167 -177.07573 -18.339443 -163.24286 -24.630245 2.3873236
-33.745556 73.458023 -62.121773 104.4876 21.540026 170.94638 -20.756655 -60.490902
130000000 -18.351656 -166.7244 -24.502237 3.2344086 -57.380211 101.26189 -67.932648 69.532166
21.509481 170.76498 -21.027317 -61.616379 -32.529099 73.026497 -56.310143 95.334732
-59.837421 86.092232 -67.419319 -126.17912 -18.413116 -165.57983 -24.622763 2.1642723
-32.958378 73.698708 -61.084465 99.753159 21.519411 170.78049 -21.061192 -60.31633
140000000 -18.445389 -168.52422 -24.604862 1.9368968 -57.470829 77.744667 -74.861649 174.26962
21.500393 170.5854 -21.307678 -61.203503 -31.925352 72.588043 -59.470825 95.178444
-59.302349 91.257133 -76.189377 -171.91721 -18.475903 -167.79839 -24.646523 1.7514937
-32.673119 73.878738 -59.761234 77.606552 21.510887 170.63336 -21.368111 -60.132835
150000000 -18.51799 -170.38158 -24.58839 1.2629597 -58.803478 81.155746 -77.462448 18.57683
21.486504 170.43227 -21.49938 -61.442902 -31.469311 72.273048 -60.618523 101.71386
-58.020061 80.192017 -82.085396 93.69059 -18.501238 -169.78185 -24.63168 1.2429783
-31.893902 73.436607 -58.622944 79.513016 21.489788 170.56801 -21.588091 -60.026314
160000000 -18.497435 -172.25577 -24.610086 1.0498201 -55.22427 89.183289 -65.872292 56.095203
21.47854 170.22165 -21.754827 -61.440197 -30.854635 72.2658 -58.863243 88.918678
-56.590446 75.557251 -69.803818 44.943043 -18.496021 -171.44598 -24.60276 1.3241616
-31.321566 72.713585 -57.4715 80.078522 21.476925 170.32106 -21.802252 -60.44619
170000000 -18.47525 -174.0063 -24.58396 0.85091889 -57.570045 87.964088 -75.930473 93.159195
21.468744 169.95416 -21.924799 -61.794868 -30.34767 71.994385 -58.347244 82.767036
-57.000317 82.463242 -88.038223 -174.82695 -18.551533 -172.79657 -24.580379 0.72254932
-30.903025 73.04393 -57.525669 90.82209 21.472713 170.08157 -21.956322 -60.360348
180000000 -18.517729 -175.51918 -24.613724 0.60454917 -55.90839 86.266052 -74.979347 102.43465
21.459856 169.72664 -22.063736 -61.878933 -29.937698 71.578392 -58.193111 93.132698
-56.186054 76.79319 -75.591637 81.665291 -18.556469 -174.52585 -24.587139 0.50101924
-30.480383 71.928009 -56.269409 79.258125 21.464546 169.8224 -22.122293 -60.856117
190000000 -18.540373 -177.19994 -24.613028 0.31111693 -54.033672 72.58519 -74.2686 73.844742
21.456974 169.44876 -22.115868 -62.401634 -29.477242 70.61013 -56.92371 86.978378
-55.304802 82.196274 -69.796013 167.90625 -18.509434 -176.26428 -24.596443 0.24305868
-30.032366 72.078209 -57.669144 104.04583 21.455889 169.57857 -22.318966 -60.976467
200000000 -18.527264 -178.46446 -24.624813 0.14195578 -53.323631 80.799171 -79.36499 -93.611702
21.450842 169.17645 -22.226147 -63.046021 -28.990671 70.813774 -56.929024 84.393883
-54.508572 79.44236 -83.239075 176.64349 -18.519945 -177.74229 -24.59263 -0.086123221
-29.613091 71.764656 -56.618141 98.174591 21.446394 169.33443 -22.48806 -61.899292
210000000 -18.556719 -179.92886 -24.599819 0.22910723 -53.957138 96.732803 -67.94603 8.213459
21.441135 168.90356 -22.316654 -63.454418 -28.63781 69.956955 -55.527096 86.630089
-57.221863 77.57634 -67.641708 -142.72949 -18.601305 -178.44601 -24.631777 -0.056735627
-29.269806 71.011765 -56.805161 84.523277 21.453766 168.93633 -22.521626 -61.977184
220000000 -18.569883 178.89262 -24.578552 -0.40763289 -53.197037 86.849419 -69.533768 58.658203
21.439234 168.60352 -22.353823 -63.849205 -28.236742 69.414993 -56.164299 90.349304
-54.145592 81.357834 -82.667007 2.9296491 -18.596132 -179.52313 -24.596741 -0.20330131
-28.869476 71.017014 -56.271862 91.209839 21.45109 168.63538 -22.537621 -62.616096
230000000 -18.523783 177.61601 -24.573004 -0.57042152 -52.8349 82.167526 -74.146446 47.726093
21.431408 168.29469 -22.418161 -64.985085 -27.926304 69.530296 -53.455513 89.165894
-54.185368 83.439201 -71.497963 39.61842 -18.562744 179.25943 -24.61499 -0.49534881
-28.495367 69.934792 -56.261742 95.089432 21.44347 168.31453 -22.711685 -63.163929
240000000 -18.541264 176.35724 -24.595741 -0.51225048 -54.703995 77.072159 -78.834106 158.702
21.42923 167.99191 -22.505943 -65.399002 -27.568218 68.632362 -54.19556 86.843025
-54.391045 87.48835 -81.060394 93.672585 -18.558363 178.14932 -24.585894 -0.64869934
-28.114281 69.775017 -55.021461 90.545952 21.441435 167.99805 -22.65324 -63.927551
250000000 -18.554626 175.19749 -24.575916 -0.65171558 -54.000095 85.89489 -65.772255 151.35211
21.42486 167.65584 -22.536936 -65.896561 -27.244095 68.323685 -53.627087 105.68571
-54.101295 76.510796 -70.70488 58.429893 -18.575129 176.96455 -24.631115 -0.60002041
-27.77351 68.53508 -53.994362 87.668709 21.43737 167.67159 -22.804205 -64.153999
260000000 -18.52084 174.13918 -24.619421 -1.3747194 -53.205887 76.971756 -72.566666 87.862648
21.430164 167.31549 -22.504805 -67.291252 -26.8435 68.061073 -53.84866 83.269836
-53.191601 79.404915 -64.565094 41.249428 -18.571032 175.9135 -24.580002 -0.76234978
-27.419857 68.526649 -53.565353 71.787361 21.438585 167.3699 -22.823109 -64.93029
270000000 -18.588226 173.32817 -24.604883 -1.000024 -51.19339 83.790955 -79.756035 -45.467655
21.422136 166.99796 -22.497837 -67.691467 -26.577976 67.271675 -52.870678 74.790215
-52.3797 72.481583 -74.436562 -81.120155 -18.487606 174.84406 -24.586494 -1.3297542
-27.173775 68.477554 -55.23661 98.854614 21.431303 167.0499 -22.92783 -65.877579
280000000 -18.516481 172.591 -24.590841 -0.53225076 -51.061386 84.635323 -71.920807 -58.428333
21.420118 166.64366 -22.498962 -68.70269 -26.266224 66.621628 -54.233253 96.208252
-52.26012 90.091736 -84.346191 -83.068268 -18.531464 174.27209 -24.642136 -1.4789078
-26.805338 68.129768 -54.936367 93.549446 21.42878 166.67717 -22.861721 -67.11483
290000000 -18.470636 171.51379 -24.574764 -1.1867248 -52.013939 79.425591 -73.184525 112.22999
21.420538 166.30927 -22.498787 -69.441643 -25.992735 66.361046 -52.578827 86.060234
-53.351151 88.426003 -73.50666 121.81493 -18.551975 173.07036 -24.626989 -1.052754
-26.595379 67.194702 -53.76955 92.354202 21.425165 166.34711 -22.801189 -67.749283
300000000 -18.473455 170.03073 -24.575426 -1.3605043 -49.887848 83.445175 -74.011124 -39.623375
21.413881 165.97902 -22.586908 -70.374901 -25.659998 65.865044 -52.847389 85.901413
-51.168701 76.714058 -76.655006 -107.20697 -18.60187 172.47964 -24.605278 -1.8286182
-26.252039 67.03019 -54.643303 83.606956 21.428488 166.01376 -22.865818 -68.842293
310000000 -18.548512 169.61198 -24.577475 -1.4992367 -50.30611 73.234802 -75.227547 11.152819
21.412052 165.63109 -22.456205 -70.958145 -25.424662 65.383049 -52.215801 96.246468
-50.86166 76.802193 -73.774246 57.30225 -18.545176 171.49895 -24.611729 -1.7909938
-26.021513 66.269241 -54.370007 97.563095 21.421213 165.62724 -22.774323 -70.006493
320000000 -18.421734 168.59695 -24.588697 -1.7861935 -50.544159 70.025688 -75.09848 -156.61572
21.411282 165.27885 -22.495239 -72.618347 -25.17374 64.844772 -51.8083 84.671181
-51.226429 79.29892 -79.772385 159.53767 -18.474806 170.77505 -24.626755 -2.0005026
-25.787268 66.228409 -52.81255 92.534317 21.42374 165.28363 -22.845093 -70.635506
330000000 -18.439451 167.86195 -24.595913 -1.8374949 -51.268749 80.341331 -66.827881 116.39824
21.413389 164.90103 -22.465237 -73.421455 -24.937334 64.448944 -52.057766 89.490059
-52.468582 82.476234 -74.024345 133.66231 -18.468824 169.83984 -24.526079 -1.9440544
-25.498671 65.621353 -53.373203 97.90435 21.42185 164.91977 -22.835215 -72.548264
340000000 -18.427662 166.98711 -24.573915 -2.3503387 -50.452438 84.819473 -68.112984 164.40317
21.408224 164.50554 -22.392935 -74.5158 -24.67119 63.385876 -52.07756 97.686142
-51.269108 79.805115 -69.285423 -127.5712 -18.455898 169.18214 -24.519138 -2.0833864
-25.175985 65.380074 -53.677109 89.334312 21.420595 164.5732 -22.778761 -73.099449
350000000 -18.464912 166.62093 -24.590736 -2.3852286 -48.906769 82.58876 -69.114159 -2.3699546
21.40608 164.17421 -22.32896 -75.808533 -24.385281 63.406921 -51.290276 88.143478
-50.852467 85.859444 -76.797562 -135.58536 -18.438831 168.76686 -24.548721 -2.2711601
-24.957697 64.413231 -53.409237 88.7621 21.409454 164.17131 -22.75399 -75.430855
360000000 -18.429842 165.577 -24.564987 -2.5131326 -49.096115 75.75103 -69.207886 100.83382
21.405296 163.82794 -22.282265 -76.685349 -24.146763 62.592926 -51.603802 90.672966
-50.783478 75.123222 -73.452293 39.421772 -18.492144 167.90338 -24.575863 -2.2638962
-24.735552 63.767918 -52.293446 94.240799 21.423538 163.87823 -22.832056 -74.5495
370000000 -18.337097 164.5976 -24.559862 -2.1873465 -49.281265 73.662132 -67.497437 132.2215
21.403404 163.46349 -22.298424 -77.752815 -23.914932 61.930222 -50.822895 89.969353
-50.737911 82.010139 -81.430435 148.14622 -18.472342 167.58131 -24.546085 -2.8087189
-24.450714 63.138428 -50.679787 86.416222 21.422922 163.47623 -22.658777 -76.372307
380000000 -18.357866 164.06494 -24.587688 -3.0006108 -48.853676 76.991699 -69.533264 66.348152
21.40243 163.09688 -22.203346 -78.791946 -23.732651 61.413429 -51.390591 85.017227
-49.790951 80.571701 -64.75779 118.95324 -18.417629 166.60126 -24.587538 -2.7240515
-24.217052 62.410049 -51.648422 92.184547 21.414583 163.10898 -22.708641 -77.955597
390000000 -18.305565 163.41876 -24.57345 -2.9042633 -49.005085 76.766022 -69.943802 62.37962
21.401806 162.73416 -22.184282 -80.256729 -23.49382 60.849815 -50.820335 88.823799
-50.005207 76.461243 -77.940659 -123.77568 -18.403017 166.1459 -24.572989 -2.9231589
-24.0604 61.644493 -52.199734 90.07061 21.412264 162.7067 -22.607389 -79.351677
400000000 -18.294975 162.32173 -24.560017 -2.8141322 -48.622856 78.4757 -66.384689 57.108185
21.401503 162.3741 -22.150785 -81.010551 -23.310879 60.336483 -50.481949 83.188347
-49.700512 80.201775 -66.752792 124.88348 -18.376751 165.15024 -24.557915 -3.2148752
-23.828291 60.951271 -51.5513 87.464836 21.41559 162.37247 -22.548092 -80.198288
410000000 -18.275137 161.68144 -24.514307 -2.7341719 -47.844387 76.488815 -74.516571 118.98022
21.400038 161.987 -22.075731 -81.960464 -23.055265 59.820499 -49.770164 88.862984
-48.893353 74.457314 -77.437202 51.358467 -18.273737 164.34911 -24.530849 -2.7873712
-23.62221 60.204445 -50.563702 82.851433 21.411852 161.99353 -22.691496 -81.634125
420000000 -18.285198 161.30457 -24.521975 -3.2934029 -48.728596 75.686638 -75.296883 -131.87532
21.399937 161.56749 -21.896395 -83.406303 -22.916973 59.003525 -49.359692 86.672523
-48.525375 79.243523 -67.912315 162.418 -18.363258 163.73608 -24.574183 -3.4176712
-23.372843 59.916134 -51.07785 91.246277 21.414104 161.62866 -22.575628 -82.627899
430000000 -18.210966 160.55949 -24.51671 -3.0761807 -48.26963 77.160011 -65.913147 130.30524
21.400909 161.22311 -21.85079 -84.681435 -22.69693 58.21875 -50.653168 91.15271
-49.263748 75.572502 -73.933907 80.939827 -18.28804 163.44197 -24.528646 -3.1708424
-23.251467 59.49844 -51.135197 82.095406 21.415331 161.19658 -22.405375 -84.023712
440000000 -18.208622 159.63881 -24.508778 -2.956898 -47.587154 69.987206 -71.239044 106.02886
21.395563 160.87297 -21.865768 -86.071487 -22.512661 57.986736 -50.530823 88.723763
-48.59697 78.70623 -81.177048 115.64434 -18.237959 162.15929 -24.517368 -3.5668058
-23.034901 58.929348 -50.108936 90.87188 21.41011 160.85007 -22.452238 -85.634865
450000000 -18.184643 159.2104 -24.506569 -2.9146342 -46.85096 74.597389 -71.91394 -163.39313
21.400076 160.48027 -21.790363 -87.130806 -22.301149 57.491951 -49.220062 86.490166
-47.966354 77.508499 -75.655136 91.665924 -18.222761 161.86705 -24.574396 -3.6064415
-22.894297 58.327496 -50.461407 88.274147 21.405872 160.51134 -22.33098 -87.120583
460000000 -18.127512 158.59067 -24.508701 -3.4914191 -47.819664 74.113335 -81.854866 89.037727
21.399813 160.09944 -21.665295 -88.384888 -22.160828 56.791195 -48.936981 90.732498
-48.74852 77.081581 -71.260559 137.72749 -18.252972 161.3701 -24.536636 -3.8027523
-22.739647 57.63401 -50.761482 85.219223 21.414192 160.09402 -22.266846 -87.914444
470000000 -18.145187 158.24213 -24.522867 -3.8157237 -47.572109 76.096535 -68.164467 94.480919
21.394482 159.72704 -21.62664 -89.348396 -21.96505 56.234787 -49.176743 87.858665
-48.166264 76.141731 -67.798233 83.948799 -18.254185 160.63513 -24.548147 -3.3176107
-22.502827 57.264759 -49.917587 88.018738 21.41403 159.73267 -22.153337 -88.591637
480000000 -18.16081 157.34521 -24.529316 -3.6942406 -47.429672 75.674301 -71.803848 150.97586
21.395365 159.33559 -21.60256 -90.103905 -21.791048 55.586182 -49.048534 87.513245
-48.25098 75.400444 -69.368767 64.206688 -18.234161 160.27573 -24.54343 -3.6092689
-22.376692 56.568626 -50.645306 89.345459 21.415384 159.35408 -22.093119 -89.816681
490000000 -18.131844 156.38261 -24.510197 -3.5689678 -47.146832 77.299034 -72.299355 48.83445
21.399237 158.97554 -21.446301 -90.851685 -21.641665 55.104996 -48.046803 86.001907
-47.415058 74.029747 -68.87085 63.785736 -18.182814 159.42842 -24.514692 -4.1427565
-22.168856 56.265797 -49.122776 88.155159 21.415022 158.99678 -22.034475 -90.878098
500000000 -18.097567 156.10434 -24.500502 -3.9005439 -46.880199 72.822456 -75.411797 51.020752
21.396019 158.56802 -21.334377 -92.013191 -21.465666 54.582199 -48.285896 83.553787
-47.566315 75.879868 -72.45932 87.45797 -18.183884 158.85309 -24.496786 -4.2020893
-21.983223 55.668201 -50.184208 87.822449 21.409822 158.60023 -21.943167 -91.991776
510000000 -18.108738 155.6395 -24.46497 -4.0870523 -47.023773 73.617928 -68.642632 112.20538
21.39695 158.17407 -21.294565 -92.76104 -21.33279 53.988529 -48.823582 93.891884
-47.762398 76.012299 -71.386986 175.16098 -18.190861 158.42256 -24.505079 -4.3932323
-21.849487 54.887444 -48.797733 87.098267 21.408939 158.19923 -21.834484 -93.417183
520000000 -18.021233 155.05232 -24.489412 -4.0133848 -47.222492 76.174652 -78.351364 -131.33977
21.400183 157.79584 -21.223816 -94.302803 -21.155725 53.330818 -48.067005 89.484055
-47.464134 76.697357 -70.770935 100.38371 -18.134615 157.9323 -24.480087 -4.0202212
-21.653391 54.300133 -48.937344 89.809082 21.407904 157.78143 -21.719925 -94.501717
530000000 -18.025379 154.8969 -24.549551 -4.5178075 -46.485554 74.356468 -72.552345 34.043667
21.396254 157.43559 -21.175705 -95.85569 -20.980585 52.980179 -47.968006 92.279327
-47.732742 72.479874 -70.752251 104.82266 -18.12513 157.20694 -24.492319 -4.3078437
-21.549391 53.687382 -48.969837 88.624947 21.408789 157.42566 -21.702999 -95.842644
540000000 -18.033491 153.97116 -24.448387 -4.5216017 -46.425365 69.844963 -71.990303 107.17532
21.397253 157.01709 -21.005789 -96.902885 -20.816057 52.215542 -47.755775 85.161247
-46.879955 75.437698 -79.857635 117.1531 -18.089346 156.72842 -24.473825 -4.5480542
-21.357719 53.268089 -47.838173 85.541512 21.41646 157.0239 -21.633909 -97.413544
550000000 -18.02051 153.25198 -24.473764 -4.3419223 -47.012329 70.394279 -65.909302 132.92247
21.397526 156.6283 -21.018572 -98.123848 -20.642704 51.701584 -47.583763 85.539627
-47.32082 73.077583 -70.643517 90.726318 -18.057217 156.31979 -24.51593 -4.6126266
-21.215567 52.580471 -48.56329 88.875504 21.413647 156.64114 -21.467232 -98.134811
560000000 -17.969009 153.03221 -24.518356 -4.6260099 -45.913555 72.924789 -69.904816 110.81689
