!Mini-Circuits Laboratory
!S-Parameters
!Model: MGVA-63+
!Run / Lot / Date Code: NA / AH404P001-04 / 1348
!Fixture: NA; TB-561+
!AUTO PORT EXTENSION DONE: PORT<1>=113.62ps; PORT<2>=112.79ps; PORT<3>=112.29ps; PORT<4>=112.3ps
!Network Analyzer: PNA-X N5242A - 423 4 ports;  Serial number: 71256
!Date: 2/10/20114
!S/N: Unit# 1
!Correction: S11(Full 4 Port(1,2,3,4)) 
!S12(Full 4 Port(1,2,3,4)) 
!S13(Full 4 Port(1,2,3,4)) 
!S14(Full 4 Port(1,2,3,4)) 
!S21(Full 4 Port(1,2,3,4)) 
!S22(Full 4 Port(1,2,3,4)) 
!S23(Full 4 Port(1,2,3,4)) 
!S24(Full 4 Port(1,2,3,4)) 
!S31(Full 4 Port(1,2,3,4)) 
!S32(Full 4 Port(1,2,3,4)) 
!S33(Full 4 Port(1,2,3,4)) 
!S34(Full 4 Port(1,2,3,4)) 
!S41(Full 4 Port(1,2,3,4)) 
!S42(Full 4 Port(1,2,3,4)) 
!S43(Full 4 Port(1,2,3,4)) 
!S44(Full 4 Port(1,2,3,4)) 
!S4P File: Measurements: <S11,S12,S13,S14>,
!<S21,S22,S23,S24>,
!<S31,S32,S33,S34>,
!<S41,S42,S43,S44>:
# Hz S  dB   R 50
10000000 -12.463454 -55.307827 -29.107685 28.150272 -34.610683 102.31316 -46.535076 90.019485
24.732246 168.82065 -7.2231736 -31.105989 -23.28933 116.02471 -35.515594 104.92404
-40.510506 -166.70737 -50.720551 -163.2925 -11.957768 -50.483303 -27.846985 25.437195
-29.483923 -172.22911 -39.788326 -166.60251 24.656073 168.34209 -6.8837991 -29.73609
20000000 -13.790891 -85.926491 -26.068197 17.85745 -68.08136 -9.2837687 -69.343071 -62.687885
23.466352 166.11047 -9.5733538 -49.055992 -45.099815 63.112972 -67.419685 -150.1721
-54.896564 12.513772 -57.481255 70.850708 -13.861315 -85.288506 -26.083395 18.422068
-45.683613 64.368935 -59.064362 34.897701 23.48595 166.10394 -9.595212 -48.123222
30000000 -15.13537 -107.5873 -25.260633 13.035159 -69.753029 86.949661 -73.514816 -16.846367
22.746309 166.93314 -11.970736 -57.881695 -42.484573 65.259125 -66.772873 153.33894
-71.913254 77.077217 -68.397324 94.922035 -15.09681 -107.05118 -25.343445 13.15044
-44.289612 65.773033 -64.951714 31.469599 22.76535 166.83524 -12.020634 -57.726849
40000000 -16.048412 -121.59989 -25.148092 9.9430428 -70.379181 136.06001 -81.769928 -159.83824
22.354908 168.11746 -13.934155 -61.721935 -40.994442 68.728317 -60.516701 89.242752
-67.637634 64.693634 -69.397133 159.38478 -16.014517 -121.09437 -25.070688 10.657977
-42.19717 69.43029 -69.426903 59.634033 22.366833 168.08328 -13.934503 -61.249523
50000000 -16.771812 -131.46823 -25.071259 9.1643581 -56.787312 91.325089 -59.603363 34.664845
22.13847 169.12482 -15.428819 -62.842659 -39.272354 73.266922 -63.457729 62.657433
-60.040428 61.233288 -61.964401 119.82977 -16.650404 -131.29819 -24.845455 8.0081749
-40.1157 71.616547 -60.739681 116.78989 22.133902 169.02119 -15.486919 -62.381607
60000000 -17.247652 -138.83725 -24.6786 6.3621845 -55.555065 -11.465428 -56.375355 -92.336815
21.964045 169.83801 -16.639915 -63.437965 -37.611809 71.796234 -64.212517 35.650021
-64.35257 57.072609 -71.327896 11.067609 -17.04813 -138.87833 -24.964685 6.5070024
-39.090706 68.985207 -58.982708 4.4774313 21.983723 170.11353 -16.558662 -63.55685
70000000 -17.464413 -144.75327 -24.796797 4.849247 -59.863014 80.091011 -72.179771 102.9372
21.892191 170.27139 -17.521526 -63.395828 -37.046291 73.406685 -61.117664 82.568344
-64.469749 97.039589 -79.296783 69.831902 -17.458181 -143.92635 -24.896322 5.2841539
-38.09264 72.976471 -70.137222 9.6553907 21.899857 170.4646 -17.569347 -62.938042
80000000 -17.769806 -149.38832 -24.768166 4.285152 -62.777802 72.906349 -70.509216 -151.1214
21.831356 170.52277 -18.298683 -62.935753 -36.150608 73.321175 -66.483688 109.59783
-63.279594 52.998058 -69.831268 59.937847 -17.764137 -148.65559 -24.824932 4.3444567
-36.732731 74.289154 -64.132332 89.631592 21.841074 170.7224 -18.321711 -61.921627
90000000 -18.00621 -153.04863 -24.786188 3.6252706 -60.437901 91.598541 -74.372543 -95.537125
21.788363 170.68021 -18.904051 -62.010147 -35.165112 72.765083 -66.019478 101.34283
-61.722645 70.455978 -77.245193 -34.536163 -18.038734 -152.5916 -24.838711 3.4231801
-35.979416 73.497658 -71.267273 94.289551 21.798136 170.89069 -18.971031 -60.884552
100000000 -18.231449 -156.51797 -24.768105 3.3205304 -57.849243 74.753975 -72.898102 23.226349
21.758698 170.70578 -19.433037 -60.760223 -34.32238 73.364891 -64.944916 72.017136
-58.536755 80.490067 -69.395294 -35.202007 -18.226847 -155.69911 -24.772644 2.8540893
-34.870899 74.049782 -62.091698 71.826347 21.765554 170.89345 -19.458021 -60.080204
110000000 -18.376526 -159.43207 -24.771559 2.4045677 -60.059795 76.633003 -75.093658 140.85985
21.735703 170.63252 -19.85918 -59.940247 -33.647591 73.93145 -60.56004 62.148403
-60.900524 72.65078 -69.948982 37.765392 -18.363422 -158.81389 -24.781647 2.1019623
-34.279774 75.353348 -60.4478 85.99202 21.746229 170.77776 -19.90391 -59.074261
120000000 -18.501755 -162.06493 -24.768488 1.917366 -58.245224 78.741219 -68.189636 -48.574947
21.71224 170.51569 -20.199558 -59.303318 -32.843658 74.063171 -60.833485 70.545837
-58.128452 82.65995 -81.850311 146.57164 -18.541996 -161.76482 -24.767113 1.9605335
-33.611366 74.221878 -59.965054 82.04557 21.72933 170.69473 -20.285902 -58.36454
130000000 -18.585287 -164.51801 -24.937677 1.3404191 -55.535606 111.89451 -56.457756 11.89068
21.691742 170.38377 -20.496227 -59.19833 -32.216076 73.024261 -58.398369 98.955833
-58.26173 78.591782 -69.000221 4.3224401 -18.67659 -163.87933 -24.80405 1.7846382
-32.85759 73.608673 -59.190025 121.36372 21.711628 170.49361 -20.52902 -57.814976
140000000 -18.693939 -166.83783 -24.77352 1.0159383 -57.263607 82.251923 -77.567551 -145.30229
21.686152 170.17332 -20.805836 -58.722263 -31.69507 72.885963 -60.742828 77.438202
-58.134575 79.917847 -85.769897 153.45354 -18.757996 -166.32048 -24.746769 1.1859362
-32.260658 74.174248 -61.126652 88.671783 21.704264 170.30374 -20.817999 -57.306553
150000000 -18.727276 -168.96577 -24.767868 0.52840108 -56.403336 87.376404 -79.133362 170.52657
21.676111 169.98682 -21.068836 -58.340137 -31.128712 72.531998 -59.643612 89.098724
-56.821114 96.012169 -74.748222 55.201687 -18.800432 -168.38782 -24.773314 0.34300011
-31.698425 73.734253 -60.184216 96.00544 21.685207 170.19946 -21.049614 -57.046955
160000000 -18.75172 -171.17931 -24.771214 0.18618082 -55.15509 80.316422 -74.46595 83.587494
21.669205 169.73065 -21.313002 -58.531807 -30.482872 71.956223 -59.016251 89.826653
-56.884312 79.516716 -69.83992 134.88451 -18.755566 -170.30589 -24.73044 0.40915748
-31.194199 73.090965 -59.818066 92.551605 21.673862 169.91386 -21.307289 -57.515488
170000000 -18.685173 -173.13313 -24.736042 0.0087563042 -53.997105 76.054466 -76.425865 121.17075
21.661257 169.42714 -21.546844 -59.748535 -30.048536 71.355354 -58.015545 91.643127
-57.320526 88.052757 -74.193062 170.03697 -18.773989 -172.1675 -24.759594 0.03647441
-30.633121 73.01963 -58.934731 95.519402 21.671724 169.62859 -21.541351 -57.678905
180000000 -18.658598 -174.86845 -24.733898 -0.28343907 -54.78883 82.999336 -86.752289 -136.03784
21.654081 169.17175 -21.736387 -60.057549 -29.588987 71.06649 -58.068069 94.159599
-56.503887 75.72612 -77.238388 -166.25391 -18.726847 -173.87375 -24.733669 -0.40930989
-30.164082 72.328979 -57.976246 100.83733 21.665438 169.32845 -21.756826 -58.77602
190000000 -18.634642 -176.79626 -24.727612 -0.52746141 -54.86261 74.025368 -68.856499 115.33837
21.653002 168.84953 -21.902681 -61.038738 -29.085991 70.562546 -56.293064 86.852386
-55.660374 82.167168 -71.117355 37.454346 -18.674864 -175.67719 -24.721117 -0.54715639
-29.756655 71.747673 -57.738472 95.829315 21.657288 169.04245 -21.974119 -59.533447
200000000 -18.565622 -178.30783 -24.689749 -0.9733566 -53.691669 83.179527 -69.26297 -107.83406
21.646816 168.52304 -22.034637 -62.302143 -28.659899 70.267632 -57.296906 81.073059
-54.435307 84.036583 -71.981941 22.129274 -18.589033 -177.66795 -24.73204 -0.91436952
-29.268703 71.237648 -58.384251 80.78038 21.647499 168.74194 -22.185974 -61.268574
210000000 -18.489426 179.97665 -24.670383 -1.2099887 -54.256073 82.275505 -70.610603 90.696899
21.638014 168.21866 -22.182581 -63.663387 -28.275349 69.594742 -54.91803 87.332191
-53.775108 82.838654 -83.511185 -169.64284 -18.599047 -178.57225 -24.689669 -1.1830139
-28.899151 70.488464 -55.734985 83.476883 21.656601 168.31609 -22.218224 -61.880531
220000000 -18.410833 178.66954 -24.6891 -1.3241723 -54.403744 83.291229 -71.264526 82.857018
21.6381 167.88454 -22.312054 -64.972404 -28.02758 68.970291 -55.281445 89.697044
-54.622246 85.555977 -70.67794 21.111601 -18.526369 179.92984 -24.748547 -1.5447941
-28.560404 70.241447 -55.212246 92.452087 21.653545 167.96309 -22.342108 -63.000496
230000000 -18.25334 177.02509 -24.703363 -1.6125261 -52.521553 80.147575 -71.723167 88.500511
21.62772 167.53122 -22.431969 -67.222046 -27.615341 68.392509 -55.569229 99.007027
-54.320736 81.154701 -69.963547 65.593391 -18.397972 178.34599 -24.730242 -1.757269
-28.148945 69.518936 -56.953693 93.067177 21.647837 167.59578 -22.525276 -65.057251
240000000 -18.161524 175.66547 -24.719929 -1.7348647 -52.258751 79.903259 -76.472916 121.79469
21.627205 167.18465 -22.584558 -68.860298 -27.199146 68.016296 -54.451069 83.796486
-53.844013 76.194458 -72.698792 -32.468853 -18.304657 177.19635 -24.713963 -2.0129664
-27.745426 69.572853 -55.877117 84.234352 21.645685 167.2426 -22.550871 -66.528336
250000000 -18.064943 174.65669 -24.807951 -2.5753853 -51.95277 71.616081 -67.15773 83.664627
21.623129 166.80901 -22.616058 -71.084877 -26.868107 67.138588 -53.556908 87.570229
-54.309055 81.455292 -77.450005 -48.298611 -18.22525 175.79825 -24.743635 -1.8714813
-27.490803 69.080902 -56.947582 90.930573 21.64279 166.88229 -22.660408 -67.62767
260000000 -17.919443 173.46364 -24.629786 -2.4106874 -51.023525 78.71833 -66.19104 64.474022
21.628222 166.4234 -22.656944 -72.600334 -26.526999 66.825684 -54.901886 75.545761
-51.727165 79.204765 -73.444603 154.12125 -18.150091 174.64015 -24.668816 -2.2638023
-27.163265 68.201286 -56.176846 105.20051 21.643244 166.52718 -22.81016 -69.192429
270000000 -17.890306 172.61337 -24.765741 -2.3282251 -52.443901 71.069588 -72.891197 77.06485
21.61734 166.06924 -22.640408 -75.074554 -26.306623 66.486504 -54.988503 98.340012
-53.13942 78.538116 -69.96714 -163.45412 -17.980225 173.33705 -24.74123 -2.1148527
-26.846027 67.972832 -52.933334 84.965248 21.635862 166.17436 -22.909637 -71.988159
280000000 -17.772133 171.83731 -24.733669 -2.9500434 -50.789879 75.960747 -65.751915 125.25527
21.61788 165.69775 -22.647276 -76.650635 -25.991207 66.15564 -53.082996 82.048637
-52.381435 72.582909 -70.570007 166.54103 -17.914652 172.75478 -24.752068 -3.0391862
-26.597097 66.766396 -54.639885 96.098358 21.634436 165.76068 -22.742535 -73.949554
290000000 -17.711023 170.9039 -24.716713 -2.9197149 -50.587566 72.506699 -69.765663 125.91991
21.616756 165.32208 -22.693281 -78.074303 -25.721107 65.507988 -54.304142 80.795517
-51.395203 71.842216 -71.492752 -18.127903 -17.86902 171.68825 -24.736675 -3.1079051
-26.256496 66.660362 -54.92979 94.334816 21.630587 165.39195 -22.774233 -75.692795
300000000 -17.632521 169.68817 -24.73485 -3.1206157 -50.736839 75.179924 -66.929893 120.95634
21.612392 164.97542 -22.654022 -79.965828 -25.323467 64.71125 -53.073933 88.045609
-51.561852 74.029747 -77.493431 -134.74922 -17.818855 170.85274 -24.699366 -3.2463579
-25.954624 66.553421 -53.688969 87.646828 21.633089 165.03601 -22.767445 -76.839256
310000000 -17.608501 169.09749 -24.660595 -3.5167105 -52.055241 83.070969 -70.111801 129.40973
21.60907 164.57199 -22.540714 -81.196419 -25.23418 64.24894 -52.6134 95.855972
-51.157448 71.438354 -73.246613 -138.9868 -17.769258 169.68959 -24.704954 -3.4922273
-25.681591 65.824715 -52.580757 80.501038 21.624212 164.60831 -22.718985 -78.857605
320000000 -17.446226 168.49448 -24.686026 -3.2382851 -50.074883 81.974937 -67.520988 73.265663
21.607342 164.20311 -22.570896 -83.231934 -24.976612 64.182144 -51.264359 94.327553
-50.478645 80.639023 -72.501434 99.248009 -17.655281 169.2897 -24.700575 -3.714458
-25.484898 65.205856 -53.273518 89.775528 21.626804 164.23837 -22.699297 -80.367882
330000000 -17.431528 167.83896 -24.689461 -3.4720786 -49.435589 78.180016 -70.683319 2.8401203
21.609863 163.79784 -22.562429 -84.017097 -24.638124 63.776005 -52.46056 89.750992
-50.565113 87.865555 -69.82196 29.72121 -17.547968 168.56197 -24.68569 -3.9359577
-25.216084 65.213989 -52.522274 85.336655 21.627443 163.82372 -22.662159 -82.534477
340000000 -17.378229 167.2467 -24.728151 -3.9671998 -49.622929 77.30024 -69.145248 82.185951
21.607109 163.37013 -22.482031 -85.88678 -24.365667 63.094795 -51.099575 84.202118
-49.843742 83.493095 -69.023048 120.13228 -17.493448 168.04266 -24.648863 -4.1069269
-24.818369 64.339783 -50.727123 92.947838 21.624647 163.44888 -22.637161 -83.523788
350000000 -17.378942 167.02313 -24.670738 -3.8863964 -50.514824 83.031776 -73.097961 -168.51796
21.603102 162.9873 -22.454386 -87.096817 -24.11747 62.468113 -51.513508 85.229622
-50.970066 77.18679 -68.697395 30.337328 -17.39983 167.86809 -24.721504 -4.4235644
-24.662542 63.712482 -53.11375 91.495018 21.61393 163.00447 -22.63105 -86.255798
360000000 -17.319092 166.17279 -24.694393 -4.1712232 -49.104866 79.810783 -74.324402 75.889969
21.601141 162.62805 -22.360525 -88.008705 -23.818081 61.410137 -51.509354 89.448723
-50.745583 76.428879 -72.318634 149.101 -17.468092 167.09584 -24.745611 -4.0136199
-24.414297 63.057148 -50.61824 84.019394 21.62818 162.68466 -22.661457 -85.748024
370000000 -17.27268 165.62843 -24.694462 -4.4205151 -49.370548 78.848289 -71.302223 135.19243
21.601114 162.21562 -22.273357 -89.473824 -23.67178 60.846275 -50.12957 87.718307
-50.02018 79.443527 -66.893585 80.03112 -17.418188 167.13298 -24.661919 -4.3776717
-24.214897 61.972931 -52.446358 84.654884 21.625429 162.2547 -22.431953 -87.611465
380000000 -17.312424 165.28371 -24.707972 -4.5232282 -49.586903 78.289223 -65.712852 143.27707
21.602983 161.8434 -22.179098 -90.252457 -23.393988 60.477406 -51.011456 88.54731
-49.416752 73.805534 -68.945953 -23.590528 -17.373875 166.29834 -24.658686 -4.8398409
-23.976759 61.446144 -50.491096 84.495018 21.618513 161.85988 -22.480536 -88.893555
390000000 -17.277786 164.70284 -24.702776 -4.6218343 -48.371014 73.519196 -70.52388 104.2367
21.603134 161.4332 -22.138275 -91.515221 -23.20253 59.768597 -49.694248 86.409569
-49.677811 75.242844 -70.750397 -23.367308 -17.338837 165.90321 -24.693954 -4.9804349
-23.72167 60.864132 -51.16753 86.394577 21.619299 161.40881 -22.350643 -90.156174
400000000 -17.302391 164.03621 -24.689989 -4.8698087 -49.264496 73.171738 -69.277534 127.59146
21.603258 161.05258 -22.079466 -91.835251 -22.937752 59.193024 -49.496685 87.551102
-48.484184 77.92804 -66.241783 44.438122 -17.337196 165.60678 -24.716022 -5.0486178
-23.544077 60.601543 -50.513691 84.257202 21.621264 161.06573 -22.326689 -90.680176
410000000 -17.282789 163.57347 -24.716341 -5.045579 -47.931473 75.043556 -69.60392 59.240532
21.602503 160.63658 -21.902943 -92.694572 -22.774029 58.70887 -49.404587 83.971909
-48.820671 79.578102 -64.941185 148.19519 -17.253675 164.94142 -24.69747 -4.8679214
-23.293554 59.996983 -50.926563 91.580078 21.618576 160.64052 -22.455217 -92.448288
420000000 -17.312143 163.23192 -24.655748 -5.3446102 -48.061012 75.359688 -79.514503 -10.619703
21.604015 160.17671 -21.790806 -94.048676 -22.591454 58.030205 -48.956394 82.919907
-48.968918 70.361496 -82.891312 -31.931063 -17.290014 164.61758 -24.674028 -5.6855717
-23.105747 59.159569 -50.528591 87.769943 21.623701 160.23299 -22.371275 -93.24115
430000000 -17.272411 162.53348 -24.665354 -5.7364717 -48.186787 72.484146 -77.834106 83.608543
21.605549 159.80769 -21.704838 -94.848373 -22.325922 57.515953 -49.254734 87.213318
-48.59589 71.95929 -70.207031 167.33333 -17.255625 164.37312 -24.686178 -5.5863352
-22.968678 58.602703 -50.30233 97.81192 21.625151 159.76663 -22.237768 -94.296844
440000000 -17.265503 161.82024 -24.661963 -5.477685 -47.468403 71.702637 -75.302055 -170.77032
21.601042 159.4048 -21.69849 -95.779816 -22.195486 56.656429 -49.097248 85.150757
-47.801872 76.522308 -70.163895 -147.15659 -17.229647 163.65672 -24.692133 -5.7575274
-22.732691 58.047127 -49.893597 88.400467 21.619574 159.39864 -22.265671 -95.847298
450000000 -17.280224 161.44624 -24.652105 -5.8640213 -47.512119 77.991211 -75.744705 155.40649
21.608015 158.96526 -21.575495 -96.792458 -22.051105 56.540627 -49.474888 88.937637
-47.802101 72.197777 -66.121033 113.06328 -17.225061 163.30461 -24.68712 -5.980979
-22.568216 57.359669 -49.536957 92.39209 21.616045 159.00934 -22.124676 -97.178665
460000000 -17.261187 160.71289 -24.671242 -5.9190927 -47.28059 73.355156 -70.893417 135.05196
21.606941 158.57655 -21.4634 -98.144951 -21.843716 55.578266 -48.922413 83.907135
-47.856323 76.527512 -69.402916 44.467968 -17.279947 163.06494 -24.644276 -5.9397578
-22.400915 56.637615 -49.605911 88.682854 21.626656 158.56543 -22.047703 -97.69207
470000000 -17.290836 160.32881 -24.645683 -6.0937858 -46.776985 72.451401 -75.048653 99.109055
21.602848 158.14241 -21.384905 -98.662582 -21.641277 55.102345 -48.677975 86.511925
-48.021358 71.593636 -78.112328 159.82034 -17.300156 162.52281 -24.664881 -6.1235957
-22.217152 56.156433 -48.43697 88.988831 21.62672 158.1689 -21.92182 -98.067375
480000000 -17.311848 159.7155 -24.655302 -6.0987649 -47.151535 71.347618 -69.525459 139.31258
21.605652 157.7308 -21.337889 -99.57637 -21.478575 54.631573 -48.508827 79.278069
-47.325432 72.662193 -76.62957 -176.55243 -17.284111 162.21928 -24.682726 -6.2518382
-22.00499 55.753502 -48.929855 86.757645 21.630701 157.74962 -21.845768 -99.273232
490000000 -17.278852 158.8313 -24.620632 -6.5815239 -46.75013 76.346222 -67.477951 105.55665
21.612207 157.33748 -21.17527 -100.24841 -21.317827 53.835121 -48.487053 82.739204
-47.672031 74.058289 -74.368217 86.974869 -17.255999 161.38719 -24.654881 -6.8347816
-21.858221 55.188686 -48.271271 90.497757 21.630547 157.34552 -21.757589 -100.3571
500000000 -17.243864 158.35123 -24.673861 -6.7200665 -47.055119 73.713882 -65.445663 61.835629
21.608162 156.91052 -21.029242 -101.1646 -21.118471 53.083328 -47.787777 84.606842
-47.214485 70.943794 -75.229591 104.26297 -17.234406 160.85527 -24.616606 -7.1221256
-21.702791 54.729744 -48.900776 92.596703 21.626631 156.91756 -21.679529 -101.27486
510000000 -17.258707 157.90253 -24.647865 -7.0480299 -46.553936 73.211967 -67.876404 111.87032
21.610487 156.45189 -20.918991 -101.92317 -20.97053 52.539593 -48.139008 83.72863
-47.259964 72.322685 -71.841614 64.137177 -17.263777 160.36932 -24.620649 -6.9727736
-21.503099 53.860447 -48.866863 89.176872 21.627821 156.4841 -21.499308 -103.06567
520000000 -17.18988 157.45882 -24.602001 -7.1770492 -46.645969 73.983566 -85.14772 44.219604
21.612076 156.05411 -20.793121 -103.32064 -20.822138 51.950951 -48.001373 84.38678
-47.306641 69.932388 -69.457458 85.768097 -17.194689 160.03865 -24.62915 -7.149725
-21.369751 53.392059 -48.36248 89.298553 21.627779 156.01566 -21.425615 -103.84476
530000000 -17.156736 156.80624 -24.662607 -7.3051314 -46.402065 69.10675 -72.442284 18.594961
21.611969 155.63184 -20.690504 -105.257 -20.641939 51.389271 -47.652889 80.65377
-47.57325 75.026596 -77.675102 80.100296 -17.192289 159.24213 -24.586098 -7.3486671
-21.169085 52.8428 -48.120884 87.955475 21.630329 155.63718 -21.301023 -105.51495
540000000 -17.157827 156.11209 -24.6339 -7.1665659 -46.651905 73.832909 -69.369194 88.704376
21.611811 155.16699 -20.4981 -106.05408 -20.460533 50.768101 -47.01173 84.431885
-46.463505 73.075577 -67.820328 124.1141 -17.172012 158.59396 -24.62373 -7.2168078
-21.013279 52.062447 -47.981514 86.255913 21.63765 155.18614 -21.181629 -107.11338
550000000 -17.131891 155.38762 -24.578369 -7.3716669 -46.027664 71.974892 -68.742188 160.20012
21.612431 154.75719 -20.528618 -107.15756 -20.31142 50.476597 -47.150993 82.148804
-46.833656 72.875854 -71.453697 74.201584 -17.117125 157.94408 -24.636187 -7.663826
-20.858625 51.406433 -47.525444 86.141449 21.636908 154.76787 -20.982166 -107.85645
560000000 -17.033875 155.06541 -24.633583 -7.520906 -45.579201 70.798485 -67.509949 52.787727
