!Mini-Circuits Laboratory
!S-Parameters
!Model: MGVA-63+
!Run / Lot / Date Code: NA / AH404P001-04 / 1348
!Fixture: NA; TB-561+
!AUTO PORT EXTENSION DONE: PORT<1>=113.62ps; PORT<2>=112.79ps; PORT<3>=112.29ps; PORT<4>=112.3ps
!Network Analyzer: PNA-X N5242A - 423 4 ports;  Serial number: 71256
!Date: 2/10/20114
!S/N: Unit# 1
!Correction: S11(Full 4 Port(1,2,3,4)) 
!S12(Full 4 Port(1,2,3,4)) 
!S13(Full 4 Port(1,2,3,4)) 
!S14(Full 4 Port(1,2,3,4)) 
!S21(Full 4 Port(1,2,3,4)) 
!S22(Full 4 Port(1,2,3,4)) 
!S23(Full 4 Port(1,2,3,4)) 
!S24(Full 4 Port(1,2,3,4)) 
!S31(Full 4 Port(1,2,3,4)) 
!S32(Full 4 Port(1,2,3,4)) 
!S33(Full 4 Port(1,2,3,4)) 
!S34(Full 4 Port(1,2,3,4)) 
!S41(Full 4 Port(1,2,3,4)) 
!S42(Full 4 Port(1,2,3,4)) 
!S43(Full 4 Port(1,2,3,4)) 
!S44(Full 4 Port(1,2,3,4)) 
!S4P File: Measurements: <S11,S12,S13,S14>,
!<S21,S22,S23,S24>,
!<S31,S32,S33,S34>,
!<S41,S42,S43,S44>:
# Hz S  dB   R 50
10000000 -11.19554 -44.799065 -27.261465 21.423056 -36.278519 -74.638458 -46.163799 -100.26276
24.206516 169.15726 -6.3518248 -26.618349 -26.296621 -56.366291 -35.393307 -84.209541
-46.994705 44.656509 -50.458126 22.365683 -10.922587 -46.077408 -28.170717 20.680918
-33.034153 74.312614 -38.933151 41.488522 24.162766 168.96512 -6.3737917 -29.546831
20000000 -13.58731 -76.122726 -25.72846 17.424622 -59.350094 -147.48746 -56.389473 -102.67136
23.035563 166.62897 -9.0681152 -45.157074 -45.78981 81.423546 -52.504887 -165.15268
-63.414406 164.76128 -60.116802 -25.417486 -13.657664 -75.464798 -25.891951 17.952145
-47.825054 71.832069 -56.172905 -75.027695 23.056751 166.57823 -9.1555843 -44.408356
30000000 -15.53482 -96.130806 -25.026756 13.354899 -71.771988 68.209724 -70.462494 36.737087
22.334152 167.35651 -11.477841 -52.026505 -43.959591 70.391968 -66.154411 -16.925404
-66.943039 165.63127 -69.701469 -161.04353 -15.424372 -95.620636 -25.067554 13.834187
-43.779469 71.018364 -61.418991 131.16574 22.355194 167.24275 -11.479412 -52.022892
40000000 -16.821386 -110.32453 -24.759197 10.698786 -61.029587 62.824669 -72.326416 -32.439285
21.951851 168.48854 -13.332678 -54.733025 -42.1814 66.156898 -63.068146 114.33522
-65.566391 174.28896 -73.247856 72.199554 -16.841156 -110.04366 -24.791283 10.761549
-42.795681 79.653793 -69.593246 23.693724 21.963398 168.41875 -13.36408 -54.6912
50000000 -17.853909 -121.75346 -24.537615 7.8071785 -55.826878 -7.9035988 -59.802391 -143.70137
21.735563 169.45515 -14.795861 -54.859764 -40.247616 67.601494 -64.343735 172.5201
-55.614223 119.68854 -59.944656 -43.150444 -17.701214 -120.68276 -24.68619 8.1963043
-40.688988 79.509819 -66.313263 -46.193489 21.730728 169.32646 -14.917652 -55.42207
60000000 -18.704107 -129.17706 -24.77239 6.8546 -55.155663 177.2641 -55.764984 57.117905
21.563528 170.22649 -15.913822 -55.224373 -39.549225 67.317276 -58.593437 162.15125
-63.701725 67.820328 -71.381111 132.68031 -18.42778 -130.37595 -24.517958 6.9070492
-39.25124 69.777779 -58.029697 169.76849 21.583414 170.36729 -16.02169 -54.985218
70000000 -18.971649 -136.75571 -24.519457 6.1192336 -63.735504 78.476913 -79.127983 17.491692
21.490946 170.65623 -16.876274 -55.082104 -38.0173 72.719299 -65.414574 103.83816
-60.62822 72.956963 -67.519379 173.86278 -18.966627 -136.3383 -24.423426 5.8832965
-38.227646 74.894058 -64.678406 125.6145 21.497528 170.72388 -16.924364 -54.497948
80000000 -19.319139 -142.55588 -24.47113 4.7619219 -65.108719 112.28497 -70.548683 120.06339
21.430441 170.91211 -17.588276 -54.446495 -36.978165 73.559906 -62.57283 105.68048
-59.851807 85.98098 -67.691872 -164.71384 -19.311897 -142.18248 -24.481628 5.1025362
-37.475037 72.995499 -68.865219 91.942909 21.436581 171.00075 -17.656227 -53.700642
90000000 -19.584297 -147.16756 -24.406261 4.073452 -63.537235 93.322067 -66.486694 72.809486
21.385796 171.0842 -18.180241 -53.629173 -36.026741 73.102852 -62.216656 78.350807
-59.155304 99.532547 -76.196815 -136.57898 -19.577427 -146.62189 -24.400494 4.2595463
-36.466911 74.468239 -67.151939 113.67146 21.392738 171.18443 -18.250107 -52.847507
100000000 -19.803818 -151.44771 -24.417208 3.3879454 -61.340206 76.519203 -68.457863 108.90845
21.352804 171.12424 -18.676905 -52.755703 -35.123108 72.514076 -60.139446 86.954132
-60.448505 95.879601 -71.808449 -125.36035 -19.743727 -150.75204 -24.436754 3.6727836
-35.756107 75.061508 -62.458412 93.04644 21.356094 171.20309 -18.751556 -52.563667
110000000 -19.936481 -155.17424 -24.406981 2.7736588 -59.760216 96.035736 -71.831383 117.96935
21.328655 171.07977 -19.076029 -52.096291 -34.53664 73.41143 -60.290611 77.295517
-58.723625 95.222687 -80.870064 -116.55998 -19.874369 -154.43243 -24.419376 3.4071333
-35.07864 74.678978 -60.560436 96.020134 21.335751 171.12335 -19.172087 -51.831234
120000000 -20.043875 -158.681 -24.394367 2.2114804 -60.4603 104.01628 -71.7798 52.294991
21.304991 170.99211 -19.410818 -51.739864 -33.620667 72.659256 -58.727592 92.827354
-58.402954 81.050163 -78.043953 -36.633625 -19.985308 -157.97211 -24.380554 2.5680385
-34.262413 74.483185 -62.637508 90.926933 21.31617 171.0731 -19.538088 -51.097778
130000000 -20.143368 -161.52457 -24.403978 1.7218063 -57.39307 69.261795 -74.449013 -173.08241
21.28137 170.89468 -19.690065 -51.833359 -32.940285 73.182137 -61.862984 72.026382
-59.809532 91.083366 -72.352036 170.52994 -20.127924 -160.79745 -24.421892 2.0340583
-33.599033 73.993103 -65.622261 89.813995 21.295815 170.91096 -19.769897 -50.902592
140000000 -20.227612 -164.06094 -24.383593 1.9006573 -57.492779 84.678368 -75.07975 -49.300991
21.272625 170.71582 -19.93573 -51.344639 -32.388184 72.619308 -62.683609 86.745468
-60.412735 81.741974 -72.040016 23.512693 -20.254633 -163.17967 -24.378189 1.6684177
-32.98978 74.696068 -59.380383 94.561356 21.288267 170.76184 -19.997889 -50.455921
150000000 -20.27923 -166.20467 -24.399664 1.6655476 -57.293472 98.699844 -67.926788 40.90049
21.260677 170.56953 -20.14307 -51.253025 -31.844154 73.367462 -57.896492 81.477043
-60.587704 87.944214 -67.997101 21.054115 -20.273399 -165.71254 -24.341707 1.4277143
-32.46833 73.600517 -59.576199 83.839844 21.267166 170.68764 -20.150688 -50.065907
160000000 -20.382462 -168.78838 -24.326769 1.0840036 -56.96822 90.82695 -76.250832 83.759598
21.252913 170.35782 -20.300961 -51.247807 -31.307009 72.724037 -60.457691 96.915474
-58.253624 89.47731 -80.502228 -59.569809 -20.311426 -167.31113 -24.400911 0.884027
-31.924086 73.907822 -61.087624 70.754097 21.255646 170.45215 -20.3512 -50.638756
170000000 -20.325424 -170.66211 -24.36619 1.0108114 -56.353683 81.884956 -74.509277 131.61201
21.243336 170.08629 -20.451939 -51.677616 -30.835182 72.120682 -57.265644 75.897278
-56.348934 81.612564 -71.866806 -158.69365 -20.342489 -169.26062 -24.399506 1.0383449
-31.452684 72.902359 -60.55954 89.966072 21.252403 170.21443 -20.484224 -50.477371
180000000 -20.386177 -172.45633 -24.397112 0.62479693 -55.672085 78.253181 -83.34446 -117.84029
21.235889 169.86235 -20.526154 -51.822639 -30.341726 71.724823 -58.640926 85.633293
-57.967125 77.396225 -79.24617 109.49582 -20.356379 -171.04362 -24.363014 0.76158017
-30.96806 72.391037 -58.067936 81.857101 21.245333 169.95235 -20.603464 -50.95108
190000000 -20.382137 -174.2056 -24.3692 0.15138912 -55.577717 73.766838 -74.473633 123.56631
21.232201 169.58151 -20.59795 -51.96468 -29.819744 71.32399 -55.78553 94.972153
-57.335964 96.7771 -72.721985 -30.647455 -20.36837 -173.24174 -24.40169 0.52038288
-30.56209 72.545708 -58.707428 89.761734 21.235516 169.71091 -20.731558 -50.865955
200000000 -20.423132 -175.80685 -24.382174 0.30121052 -56.023575 85.637428 -82.976929 158.20142
21.226912 169.31543 -20.695679 -52.63308 -29.438463 70.844238 -55.739204 93.913475
-54.219406 83.144318 -78.223953 171.91899 -20.352369 -174.59654 -24.391775 0.50829989
-30.042639 72.48246 -56.820221 94.472755 21.226377 169.45798 -20.908566 -51.39782
210000000 -20.457167 -177.68323 -24.344648 -0.27614596 -53.590973 84.231224 -70.553383 34.006054
21.217436 169.0287 -20.772896 -52.784939 -29.081244 70.833778 -58.12141 93.942017
-54.775925 94.587387 -68.791954 47.657459 -20.455893 -175.67027 -24.389837 -0.14302866
-29.679129 71.564575 -57.813831 100.53948 21.234522 169.06731 -20.897379 -51.88076
220000000 -20.44556 -178.88499 -24.359146 -0.264456 -53.614292 83.14415 -81.223953 94.993332
21.215733 168.74135 -20.79285 -53.122677 -28.726913 69.924301 -54.643383 86.199638
-54.91114 76.305397 -71.989113 -162.629 -20.429813 -176.95778 -24.343349 -0.0067733051
-29.354998 71.205818 -58.110493 88.900917 21.230066 168.76958 -20.928877 -52.348358
230000000 -20.357534 179.64806 -24.340725 -0.35560405 -54.005074 78.36274 -74.947166 -159.18996
21.206932 168.43729 -20.814709 -54.110718 -28.323948 69.698662 -56.730057 84.915184
-56.700706 81.202896 -82.563812 -177.09293 -20.43832 -178.28174 -24.378284 -0.49170676
-28.917738 70.427559 -58.099781 97.181648 21.223711 168.44496 -21.050026 -52.776966
240000000 -20.451357 178.08907 -24.354818 -0.77704954 -53.251869 85.875587 -73.628624 -18.266624
21.206783 168.13062 -20.876875 -54.469639 -27.936239 69.316841 -54.195084 95.547279
-54.154171 84.052353 -72.352287 57.777351 -20.442505 -179.43391 -24.364428 -0.56252903
-28.590899 70.478516 -57.229446 92.601479 21.223351 168.13365 -21.047791 -53.361965
250000000 -20.445908 176.92754 -24.333555 -0.40105647 -52.937366 86.884651 -74.572037 -23.588179
21.203329 167.79739 -20.963976 -55.021423 -27.690828 68.943291 -55.996307 78.311066
-54.282249 74.386688 -70.62925 80.109818 -20.465038 178.98285 -24.355867 -1.0540471
-28.327967 69.399345 -55.484192 88.109467 21.220123 167.82341 -21.054039 -53.875916
260000000 -20.42421 175.47302 -24.330053 -0.76643479 -52.858173 85.609573 -71.997276 11.60199
21.207901 167.45609 -20.975468 -56.257477 -27.280045 68.203384 -54.388287 83.780357
-53.344997 85.754539 -68.291077 86.519501 -20.46027 177.8212 -24.294708 -0.79136342
-27.894714 69.388741 -53.000542 80.038185 21.219236 167.50876 -21.144939 -54.428848
270000000 -20.453386 174.91229 -24.357819 -0.73232847 -52.116116 87.180214 -69.910828 56.093292
21.201401 167.1377 -20.927345 -56.902191 -27.001261 67.785118 -53.996212 85.641571
-53.867008 94.216652 -65.256691 64.380486 -20.362471 176.58643 -24.318974 -1.2712207
-27.535261 69.583466 -56.880047 95.513618 21.215387 167.19002 -21.235598 -54.959473
280000000 -20.423136 173.94016 -24.339705 -0.92459512 -51.60421 80.747261 -72.197189 -12.671587
21.199829 166.80286 -20.900316 -57.545315 -26.690632 67.521683 -55.622021 89.588295
-52.888027 73.725983 -74.207764 127.00694 -20.345745 176.22987 -24.324512 -1.5640481
-27.308678 68.143394 -55.562099 85.911285 21.211035 166.81313 -21.165508 -56.487579
290000000 -20.392839 172.49352 -24.336393 -1.2967789 -51.41293 78.895958 -67.913002 42.80529
21.197369 166.46626 -20.926249 -58.1315 -26.397985 66.64769 -53.406796 96.330353
-53.514687 78.521019 -73.625984 133.84645 -20.451252 174.86945 -24.383694 -1.553153
-26.968363 67.524895 -53.876274 90.932198 21.207396 166.48515 -21.186583 -57.064655
300000000 -20.35503 170.88768 -24.345028 -1.4060053 -51.766052 77.823242 -64.315613 7.4733939
21.193636 166.13541 -21.043783 -59.505394 -26.173622 65.879112 -52.840618 77.584229
-51.758778 86.45359 -78.294754 -44.11721 -20.403828 174.16354 -24.372948 -1.6874958
-26.784691 67.521675 -54.767773 81.488098 21.211479 166.17438 -21.176788 -57.622982
310000000 -20.420527 170.46602 -24.358883 -1.4287856 -51.062302 76.53183 -67.805573 85.674919
21.189583 165.78551 -20.925842 -60.123554 -25.842323 65.446808 -52.5536 82.568214
-51.840984 78.15992 -79.736031 -130.9541 -20.393902 172.9684 -24.3367 -1.5739161
-26.515892 67.081238 -52.560055 75.871651 21.203899 165.78177 -21.176199 -58.94146
320000000 -20.343557 169.29579 -24.338913 -1.7340249 -51.493607 83.724266 -80.852036 97.674255
21.190857 165.44275 -20.965761 -61.293034 -25.639378 64.800339 -52.511097 85.082024
-51.167397 78.902069 -69.308342 -151.59174 -20.309002 172.08832 -24.324877 -2.2972229
-26.223072 66.510429 -54.23711 100.40086 21.206398 165.43896 -21.211508 -59.650162
330000000 -20.369585 168.50577 -24.296091 -1.4925344 -49.894764 76.462524 -70.920288 148.46448
21.192753 165.0699 -20.931412 -61.879139 -25.337826 65.039925 -52.898457 90.189774
-51.346992 80.871643 -77.103813 60.175735 -20.30983 171.17009 -24.352116 -1.9783261
-25.973063 66.016273 -53.994732 89.518806 21.206226 165.07463 -21.271765 -61.231152
340000000 -20.298521 167.58043 -24.301302 -2.0779853 -50.450401 75.681557 -79.722191 91.990715
21.18898 164.67252 -20.886509 -63.052277 -25.072157 64.130714 -51.745697 83.902107
-52.481007 83.081711 -66.041206 -93.187622 -20.306063 170.48708 -24.34971 -2.1384017
-25.619806 65.543724 -55.180683 116.85172 21.204716 164.72435 -21.248613 -62.099461
350000000 -20.335287 167.02245 -24.362423 -2.3577898 -49.263336 85.347488 -65.699074 111.92034
21.186724 164.33401 -20.870003 -64.302803 -24.790064 63.949982 -52.161572 95.986122
-50.4664 79.157059 -69.916847 121.47601 -20.244102 169.92444 -24.319508 -2.0553355
-25.425177 64.734665 -52.40303 90.107819 21.19479 164.34766 -21.237543 -63.361881
360000000 -20.269234 165.88379 -24.328236 -2.3215468 -49.814186 77.794609 -75.247871 52.99062
21.182911 164.0074 -20.84359 -65.30793 -24.572145 63.170597 -51.556408 82.291901
-51.181877 85.520493 -67.9011 156.30942 -20.365507 168.83775 -24.334793 -2.5084488
-25.108875 64.525414 -52.287571 90.069962 21.208368 164.03702 -21.219044 -63.150627
370000000 -20.224453 165.08704 -24.340895 -2.1428647 -50.469749 81.24395 -68.450981 119.89754
21.183126 163.61923 -20.851522 -66.523087 -24.343473 62.721493 -51.408718 87.454918
-50.606461 78.457329 -83.290016 -4.850008 -20.308384 168.72478 -24.311001 -2.6030519
-24.95051 63.4734 -52.402637 88.224319 21.208031 163.65009 -21.159794 -65.064598
380000000 -20.204601 164.16046 -24.354803 -2.6502557 -49.203564 76.066414 -70.538643 66.12867
21.184822 163.27412 -20.826019 -67.463806 -24.148941 61.813808 -51.102757 84.946243
-50.415417 83.96611 -68.067558 81.892059 -20.271561 167.45204 -24.317984 -2.6306632
-24.673376 62.891407 -51.348457 102.15623 21.199223 163.28317 -21.218128 -66.280289
390000000 -20.121805 163.36632 -24.306349 -2.3905444 -49.623291 77.362839 -77.190811 48.674801
21.185453 162.91223 -20.801903 -68.764709 -23.945971 61.268196 -50.828655 88.636749
-50.203335 83.418022 -68.89856 122.60506 -20.231518 166.60947 -24.330578 -2.8135724
-24.520111 62.199123 -53.282574 85.068161 21.19989 162.86594 -21.1458 -67.572151
400000000 -20.149042 162.70218 -24.324448 -2.8672159 -49.376995 78.147095 -71.107597 145.14993
21.183151 162.53888 -20.768503 -69.263481 -23.71504 60.61961 -50.186363 94.641769
-51.525265 76.89077 -75.145447 -63.717365 -20.24229 166.03416 -24.348829 -3.0428097
-24.326101 61.825199 -51.953514 96.216621 21.199945 162.54651 -21.11488 -68.690392
410000000 -20.110607 161.82301 -24.307854 -3.0063181 -48.19136 81.664383 -74.282578 132.59346
21.184839 162.16528 -20.711037 -70.538597 -23.497887 60.352551 -50.666664 90.248238
-49.998592 73.182159 -75.786842 -128.07147 -20.10148 164.8862 -24.346422 -3.1239378
-24.066351 61.271149 -51.438984 89.198792 21.200541 162.16223 -21.210554 -69.785179
420000000 -20.095911 161.34291 -24.313789 -3.0046766 -49.156162 79.0168 -68.9823 58.220924
21.183249 161.75191 -20.598946 -72.230835 -23.321884 59.52103 -49.33942 90.628311
-50.070057 81.989296 -71.689018 96.307312 -20.162937 164.39294 -24.30151 -3.2586536
-23.844049 60.472229 -51.565712 91.77813 21.200327 161.79755 -21.169218 -70.587715
430000000 -20.020111 160.51443 -24.301939 -2.9498606 -47.710121 80.032738 -68.182449 69.333099
21.184221 161.40065 -20.584936 -73.216736 -23.126122 58.899647 -50.106716 87.375313
-50.334236 72.468147 -69.124756 113.71495 -20.065075 164.07307 -24.292528 -3.3747435
-23.666582 60.086418 -51.200745 88.923485 21.202103 161.37198 -21.028234 -71.937485
440000000 -20.018902 159.50826 -24.331614 -3.0896354 -48.979809 75.624207 -74.600136 52.173134
21.181755 161.05431 -20.57585 -74.37442 -22.935389 58.402348 -49.38765 87.227859
-49.34906 77.414719 -65.481285 87.955887 -20.045813 162.74712 -24.315046 -3.3991404
-23.465681 59.319355 -50.256409 88.807655 21.198416 161.0351 -21.093933 -73.577354
450000000 -19.953627 159.21976 -24.34676 -3.1686764 -47.610691 75.198708 -67.842598 80.267929
21.186443 160.66287 -20.559992 -75.796173 -22.728746 57.729839 -49.342419 82.86956
-48.290878 83.391617 -67.428467 160.30661 -20.027187 162.48663 -24.24757 -3.8203998
-23.256683 58.88147 -50.843506 89.394066 21.192785 160.68402 -21.00757 -74.870201
460000000 -19.957966 158.48763 -24.27873 -3.712745 -48.129971 74.798912 -73.013275 64.927414
21.182348 160.28432 -20.452255 -76.746071 -22.550638 57.452049 -49.837761 83.669655
-49.008945 80.483154 -66.059029 161.66362 -20.064611 161.58977 -24.294064 -3.5622463
-23.173956 58.323643 -50.250191 96.160767 21.201395 160.28467 -20.961771 -75.891411
470000000 -19.954998 157.90672 -24.301809 -3.5960805 -48.027756 75.428604 -71.324356 140.15398
21.179869 159.89975 -20.429817 -77.677391 -22.387436 56.968536 -49.280319 88.005554
-48.204067 76.25795 -72.066933 50.955173 -20.068783 161.15762 -24.275213 -3.8722789
-22.926882 57.642796 -49.890518 86.201447 21.20245 159.9227 -20.886354 -76.58094
480000000 -19.960613 156.99139 -24.257545 -3.3523872 -47.987839 75.140182 -74.993729 169.45416
21.180809 159.52481 -20.418219 -78.553864 -22.213476 56.117001 -48.994503 87.786964
-48.440754 75.985176 -76.092606 109.45102 -20.016935 160.86018 -24.252161 -3.9659708
-22.765856 57.267139 -49.992416 88.723442 21.203661 159.53554 -20.842329 -77.727051
490000000 -19.928726 156.21359 -24.26853 -4.0538316 -47.701172 71.817139 -73.156296 133.70438
21.187069 159.16554 -20.327667 -79.569221 -22.030373 55.479572 -49.443569 84.113655
-48.142563 79.933838 -74.818626 72.660149 -19.967485 159.97435 -24.307564 -3.9344299
-22.62974 56.696064 -49.115803 92.421921 21.203569 159.17659 -20.823263 -78.868919
500000000 -19.870268 155.69487 -24.295717 -4.0946908 -47.481571 80.013031 -71.653404 41.210167
21.179508 158.77786 -20.210663 -80.756371 -21.934528 55.062336 -49.273373 90.75193
-48.479351 74.483978 -69.907372 111.52166 -19.916624 159.01627 -24.218861 -4.1180148
-22.4729 56.344898 -49.089691 91.07238 21.199883 158.78903 -20.731112 -79.902031
510000000 -19.928671 155.17204 -24.266951 -4.4145226 -47.786987 78.615593 -79.825722 164.12187
21.182339 158.37715 -20.141079 -81.509895 -21.769985 54.400375 -49.399643 88.927734
-49.268055 75.9347 -74.337555 33.934803 -19.955397 158.5451 -24.286455 -4.1329217
-22.294113 55.442421 -49.497021 97.215118 21.199789 158.40897 -20.656612 -81.745522
520000000 -19.780691 154.91342 -24.33235 -4.2333875 -47.212795 75.366104 -69.903534 91.443916
21.185061 157.99419 -20.091799 -83.140823 -21.556202 53.713867 -48.311249 86.133858
-48.013466 78.987053 -65.153267 95.990044 -19.901741 158.04306 -24.250235 -4.2385125
-22.079256 54.948376 -48.629665 92.149254 21.196758 157.97537 -20.595087 -82.556488
530000000 -19.785414 154.31117 -24.267376 -4.4220023 -47.114758 76.924347 -65.708214 96.030991
21.18491 157.6317 -20.096411 -84.320023 -21.370533 53.49015 -47.747456 87.59333
-47.745533 79.648643 -74.635841 -107.10342 -19.856838 157.3873 -24.246151 -4.4514928
-21.920214 54.585457 -48.924358 94.438728 21.201258 157.62064 -20.582554 -83.994392
540000000 -19.796041 153.44035 -24.243198 -4.3744931 -46.601868 76.455086 -70.997086 126.44001
21.186716 157.20296 -19.974964 -85.693756 -21.258566 52.755772 -48.251534 88.496704
-47.071381 77.564247 -73.406242 91.775017 -19.845119 156.82613 -24.254623 -4.6811752
-21.787434 53.826664 -49.539173 93.833412 21.210348 157.23093 -20.539387 -85.326347
550000000 -19.759197 152.49644 -24.244579 -4.5911493 -46.701355 71.789536 -71.588837 81.826607
21.184519 156.82924 -20.003256 -86.426643 -21.097084 52.030609 -48.620316 91.820587
-47.460037 75.412582 -68.697617 63.21463 -19.7978 156.29506 -24.294186 -4.8249283
-21.621418 53.363724 -48.815273 95.459282 21.204794 156.84315 -20.409071 -86.253365
