!Mini-Circuits Laboratory
!S-Parameters
!Model: MGVA-63+
!Run / Lot / Date Code: NA / AH404P001-04 / 1348
!Fixture: NA; TB-561+
!AUTO PORT EXTENSION DONE: PORT<1>=113.62ps; PORT<2>=112.79ps; PORT<3>=112.29ps; PORT<4>=112.3ps
!Network Analyzer: PNA-X N5242A - 423 4 ports;  Serial number: 71256
!Date: 2/10/20114
!S/N: Unit# 1
!Correction: S11(Full 4 Port(1,2,3,4)) 
!S12(Full 4 Port(1,2,3,4)) 
!S13(Full 4 Port(1,2,3,4)) 
!S14(Full 4 Port(1,2,3,4)) 
!S21(Full 4 Port(1,2,3,4)) 
!S22(Full 4 Port(1,2,3,4)) 
!S23(Full 4 Port(1,2,3,4)) 
!S24(Full 4 Port(1,2,3,4)) 
!S31(Full 4 Port(1,2,3,4)) 
!S32(Full 4 Port(1,2,3,4)) 
!S33(Full 4 Port(1,2,3,4)) 
!S34(Full 4 Port(1,2,3,4)) 
!S41(Full 4 Port(1,2,3,4)) 
!S42(Full 4 Port(1,2,3,4)) 
!S43(Full 4 Port(1,2,3,4)) 
!S44(Full 4 Port(1,2,3,4)) 
!S4P File: Measurements: <S11,S12,S13,S14>,
!<S21,S22,S23,S24>,
!<S31,S32,S33,S34>,
!<S41,S42,S43,S44>:
# Hz S  dB   R 50
10000000 -11.750225 -45.548367 -27.337172 24.085138 -37.465515 -87.58445 -45.742977 -75.602196
24.395533 168.95744 -6.6014771 -26.978926 -27.554283 -71.999626 -35.297523 -61.618595
-37.285599 71.82148 -48.805477 55.631798 -11.143748 -49.973793 -28.384104 17.323412
-24.985062 74.483521 -37.311905 57.938801 24.34247 168.96242 -6.3753133 -30.846098
20000000 -13.705489 -79.80365 -25.840492 19.00174 -62.171509 38.004456 -67.986763 139.67677
23.198753 166.4877 -9.292408 -46.579201 -45.321522 67.794136 -64.47863 123.92096
-55.526905 -165.18613 -61.53463 -80.153099 -13.74089 -79.914101 -26.010906 16.901125
-44.617046 92.549034 -62.363972 -146.37454 23.221222 166.43465 -9.332715 -46.198067
30000000 -15.377635 -101.05746 -25.114244 13.178017 -63.194984 171.89578 -68.765656 -31.94878
22.491425 167.22617 -11.701589 -54.557453 -43.09663 67.983162 -70.023659 -151.25697
-74.691551 -12.617751 -67.143311 92.804619 -15.332204 -100.87826 -25.1884 13.540752
-44.644444 70.368477 -65.94046 -18.653284 22.5098 167.10234 -11.731658 -54.568581
40000000 -16.487278 -115.88397 -24.831608 10.870612 -62.857201 118.64666 -70.954376 -42.454681
22.102324 168.36232 -13.63144 -57.934322 -41.048679 71.239639 -67.360291 -135.29155
-62.105808 107.57849 -67.525597 -17.915262 -16.503046 -115.72853 -24.889973 10.085784
-41.798065 66.703018 -77.408432 156.26036 22.114283 168.29463 -13.660879 -57.835571
50000000 -17.414486 -126.54084 -24.610529 7.9547911 -56.419441 88.445511 -57.818047 -148.00362
21.885256 169.34044 -15.160295 -58.496296 -39.850983 73.77095 -75.771706 -170.54147
-56.016426 56.650223 -57.894093 -45.545113 -17.233454 -126.4886 -24.856895 8.1527605
-40.249119 74.04129 -60.682575 28.603279 21.878344 169.21593 -15.268946 -59.144493
60000000 -17.87846 -134.29774 -24.892044 6.133348 -57.164726 49.837601 -54.644447 75.196381
21.708651 170.11758 -16.337542 -59.233322 -38.251438 73.333801 -58.820377 136.74039
-67.203583 102.54371 -77.689087 60.550625 -17.779015 -135.34172 -24.656363 6.879056
-40.807087 68.851517 -54.306458 -169.54126 21.728176 170.25819 -16.447618 -59.23735
70000000 -18.162148 -141.72229 -24.620275 5.6918278 -62.093708 80.836975 -76.028267 56.046192
21.636164 170.56116 -17.330944 -59.424271 -37.524788 72.604179 -63.567619 112.2654
-62.023083 92.428902 -74.023079 67.92662 -18.189753 -141.23482 -24.655632 5.5577979
-38.499615 74.229477 -77.982132 -166.10921 21.64085 170.62395 -17.375986 -59.148846
80000000 -18.435812 -146.89014 -24.597458 4.712184 -59.846016 80.63456 -76.378906 161.56505
21.574337 170.8246 -18.130583 -59.244835 -36.30946 71.598335 -61.364983 104.70069
-64.464989 104.46265 -82.808533 -128.07466 -18.478107 -146.9446 -24.616245 5.1252542
-37.315128 73.83567 -72.444199 57.113239 21.57951 170.90141 -18.178059 -58.550369
90000000 -18.632177 -151.41422 -24.609982 3.9475808 -57.877617 80.360306 -73.510376 162.73592
21.529074 170.99992 -18.800062 -58.818146 -35.451397 71.608223 -59.914299 94.542198
-64.526688 93.983749 -73.357437 -145.0481 -18.668901 -151.17072 -24.56632 4.1351805
-36.245331 73.760872 -65.047325 101.92189 21.534809 171.09192 -18.880314 -58.002888
100000000 -18.804867 -155.43437 -24.543036 3.2147501 -58.905552 87.177246 -73.973038 -165.30887
21.497393 171.04567 -19.337193 -57.961807 -34.730633 74.294998 -61.949169 96.158775
-60.2523 51.994705 -75.198936 -79.178604 -18.760464 -154.94984 -24.57139 3.5603364
-35.581558 74.248451 -65.576324 53.058189 21.497517 171.11603 -19.427589 -57.640419
110000000 -18.863333 -158.80435 -24.522726 2.8492458 -60.104912 78.187012 -81.25206 157.14664
21.472229 170.99164 -19.811325 -57.575825 -34.081123 73.407974 -59.36042 93.667336
-60.409477 78.917587 -68.189743 72.791702 -18.859591 -158.35686 -24.553448 2.7323973
-34.726994 75.452431 -63.456936 92.515686 21.478149 171.03391 -19.883051 -57.412228
120000000 -18.949146 -161.87057 -24.521465 2.325505 -59.855709 81.768021 -75.442368 103.2069
21.44729 170.90581 -20.161633 -57.501751 -33.288002 73.304535 -61.319241 93.737762
-60.290401 78.08149 -72.60656 -2.8463941 -18.941982 -161.44235 -24.510502 2.2590649
-33.965065 73.891373 -62.274792 108.45934 21.457968 170.98872 -20.29084 -56.672352
130000000 -18.958223 -164.51675 -24.60018 2.2476153 -60.321102 87.171623 -67.699562 -169.5899
21.423326 170.80986 -20.503557 -57.679268 -32.740234 72.932335 -60.240623 84.553329
-58.538715 79.654869 -71.72583 -9.7712736 -19.056282 -163.91179 -24.524031 1.8047879
-33.427174 74.034676 -59.874111 105.1944 21.436956 170.82545 -20.560266 -56.401848
140000000 -19.065981 -167.00896 -24.527937 1.889571 -58.653984 83.017784 -77.656586 16.947206
21.415916 170.63275 -20.796406 -57.244583 -32.105667 72.764481 -59.598259 89.362862
-59.811939 84.864937 -77.659561 7.4959583 -19.12813 -166.06926 -24.558596 1.8757327
-32.736404 74.180176 -61.200283 97.430931 21.428154 170.67145 -20.846571 -56.114033
150000000 -19.147255 -168.95677 -24.547005 1.1460347 -55.453369 76.786217 -75.96624 113.18967
21.403034 170.4798 -21.023842 -57.331032 -31.525911 72.491753 -57.091343 87.235794
-59.184605 90.43821 -70.186287 50.326557 -19.182775 -168.38495 -24.531179 1.4531571
-32.273457 73.741356 -59.286732 112.25471 21.406443 170.59941 -21.038158 -55.781208
160000000 -19.196142 -171.10025 -24.494139 1.0845045 -55.218163 94.183479 -68.775429 99.742142
21.393919 170.26566 -21.207661 -57.1656 -30.90411 72.631538 -57.628792 76.039101
-58.22784 104.70077 -67.697739 93.714439 -19.159927 -169.94066 -24.501337 1.2598233
-31.6507 73.164261 -58.980927 98.630409 21.395023 170.36559 -21.21595 -56.322769
170000000 -19.133699 -172.76822 -24.553127 0.82142186 -55.662426 71.542213 -74.460075 93.708595
21.384663 169.99582 -21.335382 -57.700542 -30.525234 71.686615 -58.026237 88.041977
-56.04924 81.103004 -80.012169 79.110641 -19.208166 -171.76213 -24.523312 0.85993493
-31.091892 73.151169 -58.414719 95.800415 21.390841 170.12299 -21.378666 -56.452129
180000000 -19.199467 -174.51627 -24.495495 0.73733306 -54.947868 81.333748 -70.788422 72.598183
21.377014 169.76863 -21.459986 -57.592762 -30.110695 71.748909 -58.074917 84.84951
-54.564381 85.997612 -72.746437 -58.418388 -19.198076 -173.45901 -24.520487 0.45617634
-30.639633 72.174149 -60.968723 87.842957 21.384386 169.85919 -21.515879 -56.678333
190000000 -19.209305 -176.34331 -24.493958 0.51310682 -54.155918 80.655319 -77.781502 115.19699
21.372955 169.49913 -21.529234 -57.858109 -29.628057 70.75161 -57.666988 98.146248
-55.479885 79.37719 -80.27858 73.556885 -19.206005 -175.22359 -24.543989 0.3356398
-30.218592 72.412552 -59.932713 83.93119 21.374733 169.61214 -21.724642 -56.841854
200000000 -19.238358 -177.52075 -24.508234 0.09939421 -53.422314 80.061913 -70.562157 135.26065
21.366314 169.20955 -21.633535 -58.744717 -29.26059 71.22821 -56.084347 89.560745
-56.468052 77.749557 -72.708572 162.63109 -19.174957 -176.62569 -24.512054 0.31428736
-29.859062 71.394424 -58.105064 98.098122 21.366045 169.36389 -21.885359 -57.526737
210000000 -19.221006 -179.19424 -24.504356 0.14430688 -53.983723 79.538216 -71.735893 -116.3906
21.357582 168.9422 -21.728806 -59.043468 -28.819336 70.271065 -55.328869 80.745186
-57.306107 88.834061 -66.958672 141.136 -19.275698 -177.68056 -24.504515 -0.20802136
-29.409945 71.220612 -55.384792 97.95594 21.372461 168.97713 -21.874729 -57.718151
220000000 -19.257183 179.62444 -24.528563 -0.30347836 -54.021698 72.499107 -75.512154 56.232445
21.356304 168.64693 -21.730829 -59.376965 -28.420986 70.130707 -55.853378 87.823936
-54.192139 80.677574 -80.177513 -2.5582652 -19.267736 -178.7471 -24.506977 -0.19661932
-29.070234 70.660522 -55.932007 94.810326 21.368633 168.6763 -21.917904 -58.198143
230000000 -19.181993 178.23026 -24.50979 -0.6850993 -53.828598 85.394737 -71.466217 52.212803
21.347504 168.3367 -21.799093 -60.425392 -28.024338 69.544044 -54.884193 86.600075
-53.784946 88.801346 -72.448326 -91.689972 -19.233622 179.97314 -24.539316 -0.29787692
-28.64963 70.253281 -58.569405 86.721725 21.36339 168.3439 -22.07045 -59.222073
240000000 -19.215153 176.84937 -24.506891 -0.56558079 -54.233498 78.173798 -82.549774 -129.65494
21.346655 168.03192 -21.915791 -60.716503 -27.705141 68.503769 -55.76329 85.448853
-53.549976 81.263489 -76.69529 42.148106 -19.222263 179.05428 -24.47109 -0.50099427
-28.263775 69.688927 -58.419544 87.856499 21.361437 168.03127 -22.045067 -59.448376
250000000 -19.2187 175.73782 -24.502613 -0.55102879 -52.056374 75.151886 -71.915535 46.245548
21.340731 167.68625 -21.936985 -61.387569 -27.355902 68.274574 -54.727341 85.162888
-54.05555 85.631317 -79.403107 97.502167 -19.264925 177.69783 -24.502439 -0.71411514
-28.019682 69.95916 -55.794128 87.580872 21.358459 167.71667 -22.013901 -59.968182
260000000 -19.180292 174.76973 -24.474272 -0.69143867 -52.177174 85.591049 -67.480476 73.363533
21.346621 167.34993 -21.908926 -62.53315 -27.145678 68.192009 -52.971577 91.253349
-52.430359 80.40387 -74.755135 163.20766 -19.26679 176.42175 -24.542952 -0.51148498
-27.64484 68.831474 -55.054768 83.204514 21.35915 167.405 -22.214407 -60.460957
270000000 -19.275768 173.72612 -24.530695 -0.8355695 -52.1852 77.73188 -71.88398 137.95534
21.338326 167.02686 -21.919903 -63.358284 -26.737453 66.997063 -52.832001 84.458328
-54.263687 85.759407 -74.603691 40.679447 -19.206589 175.19536 -24.532688 -1.2725165
-27.253757 68.198097 -56.940937 87.630821 21.351349 167.07982 -22.283167 -61.441097
280000000 -19.21319 172.82738 -24.436487 -1.195192 -50.6451 78.091866 -77.066475 57.681271
21.336903 166.69312 -21.932943 -64.222046 -26.490562 66.961792 -52.774338 84.890152
-52.863491 69.128448 -69.443031 53.916744 -19.187094 174.7206 -24.522017 -1.0954045
-26.992407 67.521255 -55.273205 81.668556 21.349688 166.70256 -22.144201 -62.55056
290000000 -19.188978 171.95177 -24.456358 -1.2781572 -53.035114 79.687622 -68.695709 68.172935
21.337696 166.34915 -21.924892 -64.671204 -26.138245 66.513191 -52.266811 87.090523
-52.394154 85.626724 -79.843002 83.456741 -19.211264 173.53722 -24.47068 -1.7313792
-26.688643 67.244034 -53.612038 86.179977 21.345053 166.38173 -22.19619 -63.475338
300000000 -19.172388 170.35182 -24.484344 -1.6421936 -50.06427 87.30941 -81.090775 75.433418
21.333408 166.01846 -21.98448 -66.016685 -25.868084 66.236458 -53.331989 94.777382
-52.925613 80.832611 -69.074966 63.697178 -19.230145 173.08992 -24.46801 -1.6212069
-26.512819 66.70491 -56.682865 97.022499 21.349535 166.05736 -22.245094 -64.288193
310000000 -19.2005 169.77156 -24.462685 -1.8467867 -51.193142 82.055901 -69.056427 156.83824
21.330481 165.66397 -21.859869 -66.773987 -25.616041 65.518211 -52.828522 83.550812
-51.656712 83.627182 -72.169434 65.090317 -19.179161 172.07228 -24.526363 -1.8735446
-26.217903 65.776871 -54.567284 95.21347 21.341156 165.67578 -22.180199 -65.446823
320000000 -19.104397 169.04526 -24.523264 -1.5775492 -50.764675 77.310822 -68.860626 99.763916
21.328772 165.31601 -21.895494 -68.155357 -25.358852 64.899437 -51.200356 89.296021
-52.427502 78.805565 -81.425377 79.475723 -19.137129 170.92418 -24.492605 -1.7681056
-26.007818 66.378448 -53.328579 99.762856 21.343702 165.3237 -22.239435 -66.384567
330000000 -19.120235 168.08118 -24.493355 -1.8278333 -50.635422 79.454468 -82.15963 -22.095827
21.330374 164.96082 -21.908072 -68.62928 -25.096256 64.513786 -53.43322 88.721695
-53.246613 82.241158 -70.446518 -125.94538 -19.136412 170.42795 -24.511248 -2.0939729
-25.738363 65.60836 -54.802845 94.289322 21.343824 164.95387 -22.220322 -67.87648
340000000 -19.087444 166.80272 -24.469183 -1.622607 -50.426369 76.992882 -71.002052 71.211639
21.326468 164.5414 -21.869884 -69.621666 -24.747919 63.824623 -51.892143 92.109428
-51.029877 75.417839 -76.648132 -163.80161 -19.129606 169.79866 -24.490627 -2.114449
-25.39477 65.038475 -54.549679 87.249062 21.341873 164.61292 -22.207109 -69.204475
350000000 -19.117474 166.58405 -24.483458 -2.2804277 -50.931793 81.225334 -67.863213 -164.71243
21.322853 164.20294 -21.770821 -71.161682 -24.556774 63.480217 -50.960598 94.163193
-50.113583 82.063202 -64.77198 106.54586 -19.071468 169.41801 -24.486547 -1.8999015
-25.028051 64.206314 -52.337212 90.379654 21.330967 164.20782 -22.168865 -70.345741
360000000 -19.081181 165.52589 -24.478952 -1.9815217 -49.510113 75.205872 -68.272224 111.04567
21.320107 163.87639 -21.741625 -72.054893 -24.275717 62.644596 -51.616886 88.032562
-49.610931 77.882782 -64.934845 60.923668 -19.15592 168.08586 -24.495037 -2.752588
-24.907801 63.56004 -53.666454 96.226624 21.344433 163.91347 -22.257034 -69.964836
370000000 -19.009974 164.61842 -24.449347 -2.2608938 -49.27787 82.590218 -73.483795 147.50296
21.321743 163.49887 -21.728235 -73.253578 -24.055773 62.345474 -50.781685 92.669662
-50.780918 83.837578 -67.392014 27.168331 -19.129332 168.08893 -24.511049 -3.1039176
-24.626686 62.930679 -51.715851 89.927872 21.344366 163.51884 -22.040339 -71.824791
380000000 -19.027094 163.96603 -24.470621 -2.8214934 -49.685524 74.688103 -71.65712 86.422691
21.321505 163.15286 -21.69924 -74.453728 -23.84705 61.511238 -50.499142 85.246399
-50.201607 81.383286 -73.655281 98.090431 -19.052835 166.68394 -24.468472 -2.5689344
-24.415018 62.873669 -51.08836 86.773186 21.333954 163.15343 -22.114418 -72.907158
390000000 -18.965141 163.33362 -24.446367 -2.9212646 -49.623821 75.376205 -70.901291 63.171169
21.32085 162.77505 -21.694435 -75.634727 -23.651556 60.942875 -51.498474 88.488068
-49.893074 79.529305 -77.387711 71.093826 -19.064367 166.23715 -24.479959 -2.8346193
-24.231539 61.981884 -50.530624 87.820496 21.334057 162.74637 -21.997217 -74.700401
400000000 -18.975582 162.25131 -24.416759 -2.9134805 -49.262337 79.479866 -82.372452 -50.694679
21.320005 162.41753 -21.588459 -75.988495 -23.388468 60.389549 -51.244774 85.225075
-49.612633 76.119102 -76.424591 53.897758 -19.037766 165.36652 -24.490864 -2.6773019
-23.980703 61.616196 -51.619083 85.057289 21.336121 162.42918 -22.029461 -75.448196
410000000 -18.947599 161.72809 -24.424934 -2.6956527 -49.133446 76.239792 -74.514618 19.165886
21.321339 162.02785 -21.555815 -77.364098 -23.214851 59.950844 -49.822563 88.485512
-48.550213 76.426254 -79.062859 82.28936 -18.967852 164.28348 -24.453575 -2.8986685
-23.757118 60.924255 -50.607334 88.904701 21.334787 162.04135 -22.087631 -76.856163
420000000 -18.93491 161.29617 -24.424856 -2.9232931 -48.43512 75.843849 -73.10334 76.734688
21.320606 161.61133 -21.452728 -79.051178 -23.048393 59.358135 -49.756363 89.257309
-49.106174 75.497871 -69.558281 -163.87289 -18.969267 163.96637 -24.484167 -2.9344544
-23.580032 60.038509 -50.915691 90.323013 21.336464 161.65779 -22.082367 -77.719788
430000000 -18.87903 160.44456 -24.480238 -2.9846103 -47.938839 75.110809 -72.521797 92.247742
21.319038 161.27522 -21.366404 -80.147194 -22.861969 58.423172 -50.161827 85.008904
-50.234169 78.625504 -72.143562 89.88398 -18.929604 163.51099 -24.435947 -3.3393772
-23.382444 59.60709 -49.756607 94.38604 21.336971 161.23836 -21.855116 -78.88916
440000000 -18.867912 159.48145 -24.43833 -3.5186625 -48.286919 75.275192 -69.566582 88.710167
21.316458 160.9142 -21.348749 -81.110794 -22.724752 58.282085 -49.444126 93.209404
-48.747978 76.703285 -69.198555 145.89371 -18.884834 162.49548 -24.476156 -3.4014685
-23.184063 58.86869 -50.953911 90.077065 21.331408 160.90298 -21.935389 -80.617897
450000000 -18.827787 159.17274 -24.449938 -3.4031849 -48.685326 76.277382 -64.280701 18.770432
21.319971 160.5106 -21.344507 -82.865028 -22.483835 57.571152 -48.881428 80.536835
-48.484879 73.292053 -68.934532 56.216324 -18.845312 162.35719 -24.420546 -4.2489495
-23.022772 58.443703 -50.507465 86.668228 21.32843 160.55569 -21.771536 -81.901031
460000000 -18.810156 158.18352 -24.409565 -3.3481085 -48.030487 77.70536 -70.417099 45.185467
21.318363 160.13937 -21.212612 -83.597473 -22.301216 56.822479 -48.797771 84.845093
-48.192539 79.557861 -66.018265 136.60747 -18.876963 161.45963 -24.425821 -4.0592713
-22.882889 58.031322 -49.743011 94.82251 21.335381 160.13898 -21.746933 -82.693184
470000000 -18.796543 157.88879 -24.435415 -3.5334342 -47.779068 77.380318 -68.04969 62.571056
21.314341 159.76714 -21.156519 -84.370605 -22.121746 56.341473 -48.789112 86.902245
-47.994511 78.26268 -69.694305 63.284523 -18.908295 160.89784 -24.45837 -3.7661266
-22.676516 57.401989 -49.484753 87.843773 21.336914 159.77382 -21.691044 -83.769821
480000000 -18.812811 157.16098 -24.429512 -3.7196817 -47.498474 73.134544 -71.998375 147.3933
21.313986 159.375 -21.130758 -85.336319 -21.91157 55.644875 -49.134918 90.958038
-48.909222 76.291962 -69.656303 -113.21069 -18.86171 160.36414 -24.43261 -3.8303561
-22.517538 56.883553 -49.381821 85.41938 21.337666 159.38861 -21.619745 -84.921844
490000000 -18.761513 156.22203 -24.448067 -3.9202483 -47.223305 72.149895 -65.918091 96.454079
21.320593 159.01244 -21.012047 -86.45462 -21.791201 55.285107 -48.183266 88.751892
-48.148647 74.228027 -69.39872 66.890823 -18.797718 159.64351 -24.422726 -4.0122547
-22.320864 56.098049 -49.747971 91.400337 21.337934 159.03101 -21.566231 -85.911613
500000000 -18.742584 155.82231 -24.417459 -4.2207313 -47.034016 74.973206 -64.945763 103.34524
21.314711 158.6107 -20.910961 -87.298279 -21.611847 54.535511 -48.543201 87.845909
-47.800278 71.406578 -71.161407 -46.255112 -18.788387 159.00888 -24.422132 -3.9875357
-22.155535 55.679962 -49.78278 95.066605 21.333731 158.63187 -21.501492 -87.037071
510000000 -18.755735 155.26164 -24.448795 -4.0875368 -46.817989 73.614555 -67.909103 45.995064
21.315836 158.21558 -20.851015 -88.321495 -21.471939 54.124588 -48.352539 89.184334
-47.475609 76.844643 -65.75415 67.507568 -18.824654 158.32257 -24.428806 -4.3662615
-21.961515 55.369633 -47.877621 87.069191 21.3318 158.24603 -21.358736 -88.763214
520000000 -18.679266 154.79695 -24.435484 -3.9972811 -46.936531 73.868744 -83.815033 -19.240101
21.319008 157.83746 -20.78384 -89.942581 -21.312565 53.371189 -48.552834 89.781319
-47.128105 74.431793 -71.284042 30.007196 -18.744427 157.93655 -24.452477 -4.7208219
-21.85281 54.501781 -49.192028 87.705429 21.330254 157.82104 -21.318632 -89.75901
530000000 -18.6789 154.56396 -24.369581 -4.7348881 -47.393154 77.278099 -76.580246 -59.90699
21.317442 157.46617 -20.689371 -91.285469 -21.157232 53.102215 -48.036171 88.031181
-47.665272 80.576149 -69.321907 -163.40283 -18.744476 157.34422 -24.459661 -4.5944357
-21.678278 53.992195 -48.839809 91.837364 21.332666 157.46077 -21.291088 -91.349915
540000000 -18.665049 153.78699 -24.38061 -4.572155 -46.901531 72.572021 -67.881294 82.080894
21.318293 157.05453 -20.612059 -92.434479 -20.949738 52.13179 -48.475876 85.876511
-48.043568 75.740593 -72.767258 75.9422 -18.748396 156.80734 -24.385914 -4.5961771
-21.542269 53.321945 -48.691067 92.220032 21.340981 157.07022 -21.228666 -92.780823
550000000 -18.614155 153.21872 -24.380716 -4.3995929 -46.944221 76.925125 -66.014496 83.296555
21.317982 156.66721 -20.65527 -93.428062 -20.838213 51.711098 -47.506371 84.8638
-46.808781 77.337082 -75.823044 61.700378 -18.690613 156.39966 -24.386902 -4.862906
-21.385616 52.959175 -48.939602 89.185226 21.338083 156.68753 -21.093605 -93.483513
