!Mini-Circuits Laboratory
!S-Parameters
!Model: MGVA-63+
!Run / Lot / Date Code: NA / AH404P001-04 / 1348
!Fixture: NA; TB-561+
!AUTO PORT EXTENSION DONE: PORT<1>=113.62ps; PORT<2>=112.79ps; PORT<3>=112.29ps; PORT<4>=112.3ps
!Network Analyzer: PNA-X N5242A - 423 4 ports;  Serial number: 71256
!Date: 2/10/20114
!S/N: Unit# 1
!Correction: S11(Full 4 Port(1,2,3,4)) 
!S12(Full 4 Port(1,2,3,4)) 
!S13(Full 4 Port(1,2,3,4)) 
!S14(Full 4 Port(1,2,3,4)) 
!S21(Full 4 Port(1,2,3,4)) 
!S22(Full 4 Port(1,2,3,4)) 
!S23(Full 4 Port(1,2,3,4)) 
!S24(Full 4 Port(1,2,3,4)) 
!S31(Full 4 Port(1,2,3,4)) 
!S32(Full 4 Port(1,2,3,4)) 
!S33(Full 4 Port(1,2,3,4)) 
!S34(Full 4 Port(1,2,3,4)) 
!S41(Full 4 Port(1,2,3,4)) 
!S42(Full 4 Port(1,2,3,4)) 
!S43(Full 4 Port(1,2,3,4)) 
!S44(Full 4 Port(1,2,3,4)) 
!S4P File: Measurements: <S11,S12,S13,S14>,
!<S21,S22,S23,S24>,
!<S31,S32,S33,S34>,
!<S41,S42,S43,S44>:
# Hz S  dB   R 50
10000000 -11.510931 -45.685566 -27.009041 22.590631 -36.047714 -17.284954 -47.312405 -23.674482
24.370481 169.02449 -6.4329596 -27.705742 -25.62883 -3.1105206 -36.910175 -13.479438
-36.53204 83.751297 -47.830971 47.675098 -10.782811 -48.06913 -27.520313 18.83503
-25.788252 93.05629 -37.874634 57.23484 24.311983 168.74252 -6.1817641 -30.01832
20000000 -13.714458 -81.208214 -25.742712 18.099319 -55.449387 -127.00568 -61.912979 -74.505821
23.169111 166.28836 -9.3084249 -47.616749 -49.243763 79.780983 -56.865772 -81.179337
-59.668381 51.54681 -66.16243 113.98331 -13.746834 -80.846237 -25.902124 17.876505
-47.773411 70.810318 -62.250927 -71.983757 23.202009 166.17889 -9.33885 -46.755821
30000000 -15.518054 -102.26336 -25.109739 12.714667 -78.462631 -33.266617 -65.481277 -4.3741279
22.444662 167.11157 -11.810255 -54.840858 -43.256065 70.286469 -64.846748 -71.516418
-59.972473 97.56591 -60.345367 -169.4166 -15.409984 -101.97194 -25.100927 13.306417
-44.442791 64.29525 -58.621284 81.609001 22.472116 166.92598 -11.866251 -54.997761
40000000 -16.578785 -116.76867 -24.926163 10.368121 -63.260139 100.13665 -69.128059 -25.047699
22.056883 168.30815 -13.779169 -58.197353 -41.46838 66.324951 -64.62632 134.28287
-77.816559 87.45948 -70.955696 10.730638 -16.568586 -116.7995 -24.777748 9.92451
-41.887833 75.556053 -64.745117 113.46944 22.075127 168.20131 -13.796574 -58.302578
50000000 -17.408642 -128.23988 -24.570103 7.6664863 -62.799732 5.5509381 -57.42823 -101.03501
21.840504 169.30647 -15.319633 -59.375362 -40.15744 67.221977 -68.668541 -77.638008
-54.718243 74.963905 -60.081814 -60.646126 -17.207554 -127.52407 -24.781498 7.4317541
-39.703697 75.304878 -61.3764 -17.619953 21.841764 169.14372 -15.382141 -59.693531
60000000 -17.827782 -135.85973 -24.828381 6.898159 -54.419285 -175.98657 -54.958988 125.05982
21.660454 170.07237 -16.576765 -60.639198 -39.119667 66.928757 -59.576458 -150.57393
-69.817635 43.413086 -77.548721 120.24621 -17.633112 -137.27031 -24.64452 7.170897
-40.03912 64.102219 -56.529064 167.69911 21.688671 170.25441 -16.683989 -60.584263
70000000 -17.99061 -143.97414 -24.63702 5.5935278 -57.381756 110.84295 -66.199516 138.31656
21.584864 170.51669 -17.656525 -61.54187 -37.546158 73.429375 -64.671715 118.13299
-66.585747 97.499237 -72.086983 -154.2106 -17.955318 -143.49609 -24.603251 5.696836
-38.212132 74.34687 -64.089195 107.93889 21.59922 170.62404 -17.68915 -60.886219
80000000 -18.091303 -149.75894 -24.600584 5.0883479 -65.544998 65.764473 -75.240936 -22.118824
21.521734 170.7863 -18.618771 -61.81794 -36.701923 72.563194 -63.372906 103.22081
-60.779842 74.86869 -69.938828 159.78284 -18.091097 -149.80684 -24.561342 5.1461124
-37.170605 74.186363 -65.617737 118.23839 21.535133 170.91141 -18.68898 -61.187252
90000000 -18.200718 -154.46597 -24.591372 4.1939306 -63.352673 66.750351 -74.130562 44.673149
21.474348 170.97453 -19.398989 -61.841606 -35.880745 72.894264 -63.233635 78.411774
-58.751778 79.998901 -98.245567 -13.654385 -18.176292 -154.60034 -24.576685 4.5544252
-36.352795 74.487816 -63.63628 98.260406 21.488077 171.11424 -19.500006 -60.926517
100000000 -18.282043 -158.87994 -24.512415 3.2494063 -61.026623 81.06221 -70.403488 179.40656
21.439512 171.03609 -20.025747 -61.702442 -34.860657 72.392952 -63.546387 110.00598
-58.943401 74.795448 -81.026337 99.649651 -18.20686 -158.11476 -24.574665 3.7761772
-35.479149 72.956696 -65.27803 90.312897 21.450668 171.15463 -20.159851 -61.566841
110000000 -18.290321 -162.24445 -24.516716 2.910893 -63.073803 74.996147 -68.88176 154.37657
21.412224 170.99905 -20.581881 -61.734623 -34.231133 73.092003 -60.894188 104.70264
-57.379906 81.021065 -87.092972 131.96373 -18.237272 -161.7794 -24.542847 3.1499674
-34.945477 74.770439 -63.714741 78.79892 21.427752 171.08482 -20.731415 -61.682529
120000000 -18.322403 -165.03006 -24.55883 2.763494 -61.304516 86.588341 -73.800682 105.8773
21.386604 170.92567 -20.988821 -62.41864 -33.348465 72.248161 -62.047432 98.46077
-59.385525 77.555252 -74.335197 71.170792 -18.222239 -164.66057 -24.574045 2.9081714
-34.069244 73.974678 -61.112316 96.931969 21.404917 171.05618 -21.184891 -61.747856
130000000 -18.211977 -167.44548 -24.465143 1.8331003 -60.924782 105.10924 -77.900665 47.096279
21.361414 170.8504 -21.403603 -63.106522 -32.881649 72.067528 -62.819294 92.779419
-59.192692 78.816528 -73.525322 -48.806286 -18.241104 -166.80392 -24.5532 2.522583
-33.342876 73.961708 -61.819645 92.141167 21.383863 170.90686 -21.514341 -62.509914
140000000 -18.216324 -169.60104 -24.523905 1.8276807 -57.819839 81.476295 -83.029526 79.310539
21.353209 170.67645 -21.787889 -63.391808 -32.216427 72.394119 -58.883675 87.349434
-57.301792 95.838913 -71.579865 5.8150959 -18.233992 -169.08627 -24.514826 2.1523643
-32.806324 73.542458 -62.200558 78.355484 21.373186 170.76509 -21.836905 -62.629951
150000000 -18.179729 -171.57506 -24.531397 1.7472382 -58.799919 76.444359 -67.993057 101.33161
21.340384 170.52704 -22.07515 -64.09301 -31.694628 72.229797 -59.415562 91.202934
-58.442379 94.782997 -69.256493 78.981773 -18.170099 -171.26195 -24.502041 2.0408227
-32.231873 73.0709 -59.821541 84.549324 21.351706 170.70378 -22.189058 -62.496689
160000000 -18.17403 -173.9305 -24.512243 1.552596 -56.629925 82.546822 -75.652672 -167.02046
21.32962 170.32071 -22.288065 -64.468117 -31.140764 71.680824 -60.400421 94.56662
-57.624233 79.757294 -80.713898 51.558983 -18.155806 -172.80972 -24.533701 1.6048639
-31.730022 73.083649 -59.0681 96.109291 21.337036 170.47995 -22.402687 -63.340961
170000000 -18.179516 -175.55984 -24.474051 1.5270571 -55.465916 84.251335 -75.848488 61.512123
21.318954 170.06644 -22.535694 -65.244804 -30.718321 71.200859 -58.600384 94.641136
-56.663509 84.579338 -70.583626 -96.040634 -18.1793 -174.58127 -24.502668 1.3814735
-31.355423 72.977753 -59.979282 90.958298 21.332186 170.26567 -22.699476 -63.760971
180000000 -18.235067 -176.90445 -24.471674 1.13284 -56.509514 80.3302 -76.800957 -150.03464
21.308273 169.85983 -22.622213 -65.33284 -30.226591 71.249924 -58.724487 87.631363
-56.306446 88.653397 -80.131859 7.1069379 -18.170603 -175.67406 -24.525023 1.2324255
-30.737917 72.556847 -60.148922 99.702812 21.324558 170.02089 -22.850677 -64.315605
190000000 -18.246233 -178.21281 -24.52931 0.75398672 -55.635414 84.566002 -75.230904 25.451414
21.306303 169.59766 -22.62327 -65.440422 -29.721128 70.479385 -56.596561 91.829079
-56.49802 78.629524 -74.694023 61.66275 -18.197599 -177.02037 -24.507942 0.94428134
-30.369787 71.657875 -57.657181 98.529747 21.314665 169.79776 -22.999653 -64.394051
200000000 -18.239883 -179.41771 -24.497046 0.50183403 -54.582977 74.413994 -68.699959 132.80876
21.299444 169.3188 -22.688255 -65.931534 -29.282743 69.888519 -56.546753 93.266602
-55.634739 69.258362 -73.524254 154.98616 -18.20348 -178.3013 -24.550062 0.98735595
-29.902096 71.397316 -59.063416 96.748344 21.304607 169.55814 -23.104548 -65.404938
210000000 -18.256914 179.17969 -24.524731 0.55527288 -54.292618 91.035698 -71.770401 -9.6008911
21.28813 169.06171 -22.78129 -66.312271 -28.946726 70.108368 -56.511311 85.635277
-55.46278 72.604607 -75.804382 103.42053 -18.285007 -178.96851 -24.523058 0.57140684
-29.448473 71.134171 -59.201557 84.330139 21.310936 169.18082 -23.002584 -65.172508
220000000 -18.327044 177.95596 -24.498812 0.16560021 -53.374275 80.921654 -73.083504 -127.26357
21.285503 168.78218 -22.791538 -66.348045 -28.590776 69.668915 -55.329037 90.92038
-54.476494 86.431007 -80.614838 -72.677849 -18.348427 179.91154 -24.485523 0.11255307
-29.110277 70.556877 -56.762836 88.447746 21.307137 168.89392 -23.045189 -65.647331
230000000 -18.328407 176.62799 -24.485159 0.22792739 -53.207218 73.278313 -83.149292 37.103321
21.277355 168.48665 -22.844156 -67.177505 -28.232307 69.13633 -53.873638 87.610191
-54.524719 79.981956 -87.795952 -179.68481 -18.335075 178.80997 -24.464729 0.23656479
-28.839075 70.242683 -55.632053 90.282997 21.299391 168.5869 -23.187525 -65.367676
240000000 -18.429037 175.70592 -24.482485 0.014040041 -52.344536 79.070923 -78.03727 -17.383957
21.275076 168.19559 -22.880398 -66.956978 -27.812912 69.1688 -55.638412 86.73008
-53.748444 81.006744 -85.169853 128.55156 -18.391603 177.76889 -24.458536 0.08488293
-28.415127 70.116913 -55.897079 77.735695 21.298214 168.28847 -23.169985 -65.112061
250000000 -18.453463 174.80437 -24.47777 -0.13064723 -53.419773 86.114746 -80.328888 41.709957
21.27207 167.87224 -22.845934 -67.09687 -27.465078 68.619812 -54.902367 76.343056
-54.372959 78.805702 -70.790375 52.888889 -18.456297 176.69777 -24.472675 -0.28260687
-28.093115 69.358734 -54.657169 87.681282 21.294571 167.99986 -23.12442 -64.713783
260000000 -18.419235 173.60062 -24.470522 -0.43592957 -52.849072 96.527245 -71.84716 -2.2376986
21.276342 167.55807 -22.786245 -68.181229 -27.075399 68.294548 -57.20953 84.40184
-53.412273 79.749565 -67.024384 -79.581291 -18.538364 175.91515 -24.439236 0.064305514
-27.771633 69.305496 -57.835678 96.76767 21.294117 167.69344 -23.251005 -65.05809
270000000 -18.558428 172.65218 -24.486605 -0.4603135 -54.040127 80.587379 -66.477142 114.40707
21.265974 167.24464 -22.753979 -68.410545 -26.839449 67.247581 -53.382881 94.255898
-52.418663 72.378693 -63.235508 133.28636 -18.541073 174.95563 -24.493984 0.076219782
-27.394316 68.310638 -54.150261 101.06017 21.287678 167.38948 -23.316772 -65.991989
280000000 -18.573437 171.98097 -24.441145 -0.26401979 -51.760075 74.645805 -72.45166 65.541519
21.264471 166.91925 -22.700731 -68.548271 -26.595171 66.836067 -53.253529 83.18383
-51.87294 83.370506 -70.171486 -147.03864 -18.55242 174.41501 -24.471018 -0.56160253
-27.096827 67.800697 -53.604492 106.18964 21.286253 167.01622 -23.126818 -67.080505
290000000 -18.663872 170.85265 -24.458441 -0.8967585 -51.475731 76.619514 -67.762421 73.320412
21.262733 166.58643 -22.675072 -68.350479 -26.240202 66.814934 -52.823509 91.914368
-53.326019 74.230743 -76.296188 130.81374 -18.662827 173.18855 -24.437851 -0.31049949
-26.856972 67.489944 -53.87804 98.116852 21.280708 166.70496 -23.081911 -67.277748
300000000 -18.688929 169.55731 -24.551563 -0.44748905 -50.801464 82.949768 -71.503143 21.759233
21.258978 166.27657 -22.753685 -68.872513 -25.97278 66.106369 -53.612385 86.245949
-53.868294 74.419579 -72.563866 63.041862 -18.793633 172.31609 -24.526014 -0.74613166
-26.563225 66.69239 -53.536251 89.664413 21.28521 166.40695 -22.970219 -67.052788
310000000 -18.762058 168.65883 -24.473959 -0.5193978 -51.730801 83.944603 -71.510925 88.569389
21.259884 165.92386 -22.579071 -68.832832 -25.709143 65.367531 -52.683647 86.213463
-52.81374 72.775146 -77.215546 31.854322 -18.802658 171.43204 -24.470785 -0.48028237
-26.322214 66.325729 -53.348415 100.1281 21.276419 166.0264 -22.933329 -67.544006
320000000 -18.70322 167.78061 -24.446207 -1.1263853 -50.814709 79.998817 -75.93792 -6.2008429
21.256561 165.59264 -22.595596 -69.984131 -25.453537 65.066963 -52.709396 85.479591
-52.597221 81.042801 -67.647484 131.30341 -18.775276 170.3687 -24.430668 -1.1711519
-26.03838 66.163467 -55.233253 95.525848 21.281485 165.69147 -22.917643 -66.954231
330000000 -18.757734 166.89853 -24.462795 -0.96679026 -51.15881 77.804153 -68.896126 158.66684
21.254545 165.23 -22.586693 -70.817612 -25.219812 64.648933 -53.152157 76.75061
-52.27261 82.168915 -71.477928 134.94124 -18.810944 169.82234 -24.463316 -1.3061796
-25.795725 66.121315 -52.365772 89.376015 21.277853 165.3358 -22.985453 -68.967308
340000000 -18.779974 166.16498 -24.448135 -1.2121295 -50.050541 83.577866 -77.566498 81.933907
21.253044 164.85054 -22.510502 -71.414444 -24.941557 64.522011 -51.792076 88.755981
-51.898346 80.437286 -73.639122 168.4162 -18.795498 168.97342 -24.438375 -1.309213
-25.489777 64.864189 -54.779099 96.978111 21.277433 164.99915 -22.97138 -69.450706
350000000 -18.792517 165.5771 -24.429785 -1.6634367 -49.9785 73.917747 -88.208298 37.85038
21.249344 164.51335 -22.475584 -72.526802 -24.628181 63.644085 -52.104565 92.470581
-50.204849 81.368988 -64.965408 169.03271 -18.803579 168.1545 -24.526585 -1.084168
-25.144384 64.860374 -51.198689 103.13353 21.267149 164.61093 -23.034315 -70.932274
360000000 -18.78635 164.57544 -24.405437 -1.3678861 -50.105179 79.610703 -70.070206 123.13078
21.247683 164.18578 -22.414249 -72.804306 -24.431522 62.648075 -50.720337 88.165901
-50.189312 76.081383 -75.235847 46.82312 -18.936651 167.07115 -24.479763 -1.3691444
-24.997946 64.074776 -52.848408 84.489601 21.280758 164.33211 -22.99441 -70.298309
370000000 -18.771427 163.34221 -24.428734 -1.4560188 -49.790604 74.281303 -74.701759 61.03154
21.247078 163.83795 -22.354963 -73.881996 -24.110619 61.943562 -51.192787 83.914711
-50.797634 81.982246 -79.250214 22.55158 -18.941456 166.82402 -24.47529 -1.2455839
-24.752319 63.515652 -52.832943 87.439903 21.277678 163.94972 -22.730715 -72.148346
380000000 -18.865049 162.47881 -24.459026 -1.6470606 -49.081928 76.520081 -67.546211 84.393364
21.246901 163.49159 -22.288095 -74.397293 -23.906923 61.620327 -50.295574 85.078194
-49.605293 84.540817 -69.051743 24.343042 -18.973074 165.61172 -24.452139 -1.3793867
-24.587145 62.79607 -51.743587 93.116379 21.268963 163.58345 -22.719328 -73.083603
390000000 -18.830439 161.93375 -24.469267 -1.420774 -49.455952 77.421463 -83.62693 -142.11461
21.245209 163.12721 -22.26642 -75.692352 -23.760275 60.716244 -50.976597 84.096344
-49.952572 83.442764 -68.358345 86.238937 -18.957769 164.87674 -24.435062 -1.4936957
-24.326851 61.925625 -51.138119 89.813843 21.266682 163.18759 -22.608036 -74.195435
400000000 -18.853453 161.21872 -24.444763 -1.7995715 -48.346924 73.053436 -71.593018 -102.20612
21.244738 162.78339 -22.153456 -75.946701 -23.49287 60.461231 -51.482525 87.203773
-50.041168 83.997658 -76.089699 -64.480743 -18.956741 164.00804 -24.508041 -1.7888778
-24.120844 61.740322 -51.394154 90.164513 21.271172 162.8739 -22.649492 -74.442917
410000000 -18.818911 160.55023 -24.450315 -2.1105206 -49.144951 80.163284 -74.404434 83.546494
21.244156 162.40099 -22.165163 -76.916885 -23.338301 59.597431 -50.201645 84.641785
-49.700748 73.217918 -78.007164 -9.5032206 -18.824318 163.02571 -24.482904 -1.9178896
-23.883961 60.930767 -50.800449 86.334114 21.267029 162.49573 -22.781099 -75.882896
420000000 -18.786684 159.70389 -24.422997 -1.7434012 -48.506924 75.118141 -71.608109 76.04216
21.241817 162.00551 -22.085264 -78.573082 -23.095362 58.951199 -50.73082 80.882332
-49.484055 82.465065 -72.343262 42.809029 -18.854898 162.23309 -24.443989 -2.1623881
-23.730036 60.25684 -52.264038 89.334396 21.269073 162.13933 -22.823574 -76.798836
430000000 -18.75956 158.72888 -24.436157 -2.0139608 -49.131397 78.723373 -71.751114 69.281143
21.242233 161.66508 -22.057034 -79.597641 -22.975704 58.45166 -49.487301 90.562561
-49.230782 79.520813 -64.809006 79.849739 -18.823479 161.78529 -24.421511 -1.5740629
-23.474144 59.867878 -50.41502 87.337067 21.267376 161.71237 -22.697531 -78.10881
440000000 -18.763308 157.77693 -24.449429 -2.1083105 -48.745255 76.224579 -68.417633 131.88916
21.240366 161.3262 -22.047621 -80.737862 -22.747841 57.809006 -49.819035 87.306839
-48.640251 74.589806 -74.32309 -171.76059 -18.816351 160.79483 -24.458946 -2.2900729
-23.266901 59.139843 -50.232079 90.011383 21.261385 161.39557 -22.729816 -80.144043
450000000 -18.809649 157.32677 -24.445372 -2.2390993 -48.628601 73.066063 -66.028587 72.973312
21.243723 160.92012 -21.995205 -82.037605 -22.526049 57.466755 -48.493454 85.39827
-48.208729 75.799606 -67.705017 100.87003 -18.772129 160.51823 -24.445316 -2.2349753
-23.092552 58.309921 -49.84866 90.489967 21.257471 161.05951 -22.568548 -81.653648
460000000 -18.73089 156.80997 -24.403076 -2.3746498 -47.923958 75.225464 -71.217339 167.95111
21.239143 160.56635 -21.876301 -82.464798 -22.392973 56.876976 -49.246395 85.931282
-48.974037 77.113892 -69.677689 24.033121 -18.859077 159.40663 -24.455626 -2.1447895
-22.967325 57.877064 -50.781544 89.553101 21.266926 160.6665 -22.496422 -82.523117
470000000 -18.758713 156.06215 -24.407927 -2.0636032 -48.206043 76.479996 -73.535164 76.409058
21.235811 160.19608 -21.797401 -83.334442 -22.221844 56.126587 -49.730938 87.588997
-48.409687 77.033455 -69.34375 -52.341228 -18.828474 158.8662 -24.419188 -2.3098931
-22.769857 57.255035 -51.331001 87.660271 21.2663 160.29843 -22.382393 -82.889534
480000000 -18.764364 155.1385 -24.423136 -2.4312353 -48.038677 74.57444 -66.481262 90.829437
21.236719 159.81995 -21.846571 -84.654266 -22.031107 55.661118 -48.903584 83.799446
-49.174995 73.412224 -73.403732 91.643181 -18.775536 158.39908 -24.400517 -2.336498
-22.60951 56.847538 -50.022686 94.432587 21.267546 159.9281 -22.30401 -83.532211
490000000 -18.694864 154.01852 -24.386341 -2.2340937 -47.708721 76.527428 -69.62262 101.42323
21.241587 159.46655 -21.741827 -85.523163 -21.85191 55.064964 -49.504673 80.870361
-48.001461 73.94664 -76.47522 -138.46873 -18.722994 157.37402 -24.389135 -2.6276972
-22.428356 56.294682 -49.479862 93.84314 21.26613 159.58342 -22.330986 -84.975868
500000000 -18.657974 153.75937 -24.428385 -2.677407 -46.785755 72.362564 -66.92765 102.47515
21.234255 159.08957 -21.678408 -86.629028 -21.750196 54.536499 -47.924694 91.732086
-47.381725 79.003685 -66.828857 83.406578 -18.672485 156.73456 -24.466259 -2.2134407
-22.280369 55.736229 -49.986679 91.476883 21.26169 159.20822 -22.401045 -85.976822
510000000 -18.684637 153.25253 -24.428619 -2.720675 -47.238987 74.627243 -66.270905 123.00017
21.237482 158.6926 -21.623739 -87.467918 -21.578007 53.853947 -48.814899 85.615196
-48.081028 75.330238 -71.845596 6.4792724 -18.695169 156.30463 -24.378666 -2.8971915
-22.117668 55.290035 -49.434212 88.724045 21.258892 158.84035 -22.320961 -88.163223
520000000 -18.56628 152.86896 -24.431196 -2.6654897 -47.191559 74.920776 -65.140823 102.63742
21.240656 158.31334 -21.5394 -89.365089 -21.410774 53.255749 -48.101376 86.040237
-47.539227 75.115135 -71.903358 123.39518 -18.645496 155.85236 -24.431889 -2.8190365
-21.960882 54.717697 -49.157337 89.907303 21.256464 158.4137 -22.230459 -89.175842
530000000 -18.624155 152.28519 -24.391293 -2.8012161 -47.731522 76.020081 -68.257332 53.159451
21.236511 157.95288 -21.472979 -90.606422 -21.262833 53.045322 -48.311127 83.956161
-48.264393 69.266388 -67.966705 14.952799 -18.655157 155.42021 -24.382198 -3.1344526
-21.808611 54.067245 -49.33057 90.634972 21.261019 158.08144 -22.180096 -91.116722
540000000 -18.645241 151.54666 -24.395309 -2.980746 -46.239902 70.560913 -66.955963 108.97419
21.236917 157.52658 -21.34572 -91.461128 -21.079344 52.132088 -48.402966 85.743988
-47.481907 75.57019 -76.544685 98.809845 -18.645247 154.90598 -24.402315 -2.8560927
-21.648495 53.519459 -49.049496 87.1436 21.266577 157.68391 -22.093475 -92.249947
550000000 -18.626421 150.83009 -24.398926 -2.658442 -46.236877 74.429268 -72.240784 85.269485
21.232441 157.16331 -21.393122 -92.012154 -20.926687 51.666527 -47.10302 88.952652
-47.232849 78.846794 -67.771614 106.40472 -18.604996 154.4713 -24.4224 -3.1075799
-21.497427 52.822212 -48.714809 87.050537 21.262785 157.31554 -21.918655 -92.943573
