!Mini-Circuits Laboratory
!S-Parameters
!Model: MGVA-63+
!Run / Lot / Date Code: NA / AH404P001-04 / 1348
!Fixture: NA; TB-561+
!AUTO PORT EXTENSION DONE: PORT<1>=113.62ps; PORT<2>=112.79ps; PORT<3>=112.29ps; PORT<4>=112.3ps
!Network Analyzer: PNA-X N5242A - 423 4 ports;  Serial number: 71256
!Date: 2/10/20114
!S/N: Unit# 1
!Correction: S11(Full 4 Port(1,2,3,4)) 
!S12(Full 4 Port(1,2,3,4)) 
!S13(Full 4 Port(1,2,3,4)) 
!S14(Full 4 Port(1,2,3,4)) 
!S21(Full 4 Port(1,2,3,4)) 
!S22(Full 4 Port(1,2,3,4)) 
!S23(Full 4 Port(1,2,3,4)) 
!S24(Full 4 Port(1,2,3,4)) 
!S31(Full 4 Port(1,2,3,4)) 
!S32(Full 4 Port(1,2,3,4)) 
!S33(Full 4 Port(1,2,3,4)) 
!S34(Full 4 Port(1,2,3,4)) 
!S41(Full 4 Port(1,2,3,4)) 
!S42(Full 4 Port(1,2,3,4)) 
!S43(Full 4 Port(1,2,3,4)) 
!S44(Full 4 Port(1,2,3,4)) 
!S4P File: Measurements: <S11,S12,S13,S14>,
!<S21,S22,S23,S24>,
!<S31,S32,S33,S34>,
!<S41,S42,S43,S44>:
# Hz S  dB   R 50
10000000 -11.410724 -45.597679 -27.603882 29.715776 -42.14489 78.532379 -50.381252 104.67231
24.106627 169.32841 -6.6080818 -26.989809 -30.191708 85.450012 -39.999592 107.78661
-38.438583 144.75308 -46.82785 110.70332 -10.789308 -43.841057 -27.396904 25.107462
-26.902033 151.16209 -35.678745 120.18494 24.043825 168.78989 -6.2372999 -27.631937
20000000 -13.582833 -74.226707 -25.627962 19.128475 -64.727829 71.341881 -64.761482 94.904091
22.906446 166.55824 -9.0013771 -44.464603 -44.870525 54.263657 -60.410351 82.984077
-63.049316 1.1576705 -64.736244 49.03632 -13.542911 -73.975243 -25.535587 19.094427
-47.946526 50.225063 -61.679996 45.163624 22.942127 166.4389 -9.0425205 -43.879463
30000000 -15.660814 -93.744087 -24.963123 13.85198 -70.487839 -23.582645 -69.976227 88.169922
22.197956 167.36061 -11.400075 -50.83577 -43.960835 65.593971 -62.178074 78.621979
-64.488281 -24.711054 -74.508629 -10.226068 -15.608574 -93.552719 -24.95606 14.048711
-44.863808 71.586021 -69.78553 163.76482 22.228746 167.18887 -11.450201 -51.040859
40000000 -17.088715 -107.51901 -24.650122 10.943783 -64.143608 106.3976 -72.384201 2.9107325
21.817062 168.54431 -13.275569 -53.214378 -42.003292 64.639206 -70.342972 68.527222
-72.276016 88.006691 -65.378967 15.092201 -17.121712 -107.40366 -24.609932 10.53886
-43.424328 70.433327 -65.617424 70.309013 21.841164 168.4375 -13.317224 -53.070751
50000000 -18.075762 -118.80669 -24.390903 8.9565163 -65.437386 -50.204716 -58.420197 15.070273
21.60553 169.52136 -14.743299 -53.221603 -40.702209 69.541748 -61.978519 48.375633
-55.855186 -178.00275 -62.474052 50.770096 -17.949844 -118.71598 -24.365892 8.7014008
-41.944839 77.677971 -57.130348 45.179184 21.613417 169.36229 -14.793441 -53.410412
60000000 -19.066805 -128.00034 -24.393301 5.7973866 -64.578087 166.20279 -54.829464 -115.70218
21.430897 170.28078 -15.872829 -53.699883 -39.339653 71.491982 -60.562515 20.326208
-58.900902 74.839432 -70.902046 90.427834 -18.725506 -128.47034 -24.391682 6.8737578
-38.867512 74.40419 -64.128128 -92.009865 21.463501 170.45241 -15.901565 -54.210865
70000000 -19.249895 -135.4445 -24.389254 5.7262311 -63.318554 69.310356 -66.482994 -97.801369
21.357466 170.70042 -16.837347 -53.849842 -38.094189 72.362473 -72.6203 150.99425
-58.863361 95.001503 -70.010323 107.14923 -19.148552 -135.42052 -24.434158 6.0316648
-38.717911 74.092102 -62.743042 139.71255 21.376863 170.81569 -16.878336 -53.966286
80000000 -19.516239 -142.34993 -24.288382 5.1143837 -64.169594 88.144341 -71.173096 157.15036
21.297348 170.95938 -17.650171 -53.455818 -37.234196 72.281189 -66.586342 108.70712
-59.18259 93.412354 -74.200684 -71.591057 -19.483385 -142.21617 -24.333443 5.1224351
-37.750313 73.171097 -66.631485 49.978771 21.314556 171.08885 -17.714058 -53.035267
90000000 -19.747347 -147.86206 -24.315851 4.234334 -63.980133 100.27399 -69.693687 -97.382927
21.251455 171.13258 -18.313396 -53.117256 -36.227997 73.037498 -64.067703 108.58481
-62.1754 101.75502 -69.380936 -30.989586 -19.684076 -147.79936 -24.315201 3.8596721
-36.800663 75.66127 -66.368401 61.879459 21.268826 171.27992 -18.435337 -52.6464
100000000 -19.881252 -152.74324 -24.245312 3.4303093 -67.031387 65.28952 -73.552826 -23.152401
21.217855 171.18272 -18.887335 -52.441875 -35.41851 73.027328 -67.215187 84.161606
-62.970966 119.26856 -72.302666 10.027193 -19.814077 -151.98778 -24.326719 3.673748
-35.945812 76.189484 -66.975563 62.678688 21.23246 171.31258 -18.980999 -52.344448
110000000 -19.97184 -156.63947 -24.287128 3.0492036 -59.182842 84.959824 -65.457497 -74.437042
21.191484 171.14195 -19.349459 -52.085136 -34.635231 73.005943 -62.829918 98.334976
-57.759094 92.789932 -79.255669 -16.115856 -19.841656 -155.91396 -24.235773 3.0622265
-35.317345 75.109047 -64.372231 111.99356 21.210157 171.24101 -19.492937 -52.082909
120000000 -20.026329 -160.24399 -24.268824 2.5806293 -61.07114 96.310715 -77.340294 -174.41481
21.165707 171.07106 -19.706671 -52.250237 -33.783516 72.773811 -60.422249 96.275681
-58.48246 79.814026 -68.210648 -33.06633 -19.882786 -159.49352 -24.282246 2.6432629
-34.351742 73.991486 -64.908554 89.022789 21.188879 171.20851 -19.889378 -51.849243
130000000 -19.938938 -162.51973 -24.155302 2.3544436 -64.867973 -26.908226 -71.714439 34.741611
21.14044 170.98824 -20.084896 -52.580757 -33.204254 71.711296 -60.899384 85.86834
-58.411652 89.510361 -70.663284 121.32073 -19.946672 -162.38249 -24.288437 2.624464
-33.883633 75.088638 -63.624413 54.807201 21.166946 171.05719 -20.15667 -52.234661
140000000 -19.974642 -165.36816 -24.28368 1.9749125 -57.000256 87.740692 -69.346527 11.102975
21.133469 170.81853 -20.356054 -52.7673 -32.672909 73.083298 -59.933567 90.651031
-60.4062 76.541481 -101.83143 -130.27463 -19.922579 -164.82727 -24.27177 2.0786798
-33.263153 73.293266 -60.616093 87.519676 21.158306 170.91721 -20.441807 -52.108891
150000000 -19.929216 -167.9554 -24.323862 1.8423206 -57.393059 86.134888 -78.394768 -170.66794
21.121847 170.66766 -20.613953 -53.149441 -32.179558 71.992043 -59.714035 88.912888
-57.889877 75.213455 -75.204338 167.71727 -19.877254 -167.33189 -24.321173 1.5698903
-32.732597 73.193161 -59.941544 90.461311 21.137247 170.85654 -20.700016 -52.184208
160000000 -19.946516 -170.61436 -24.264608 1.4811167 -56.597538 83.958618 -83.748962 106.85298
21.11212 170.45712 -20.807446 -53.370647 -31.543953 72.307533 -57.928268 86.824059
-58.327644 97.909103 -72.129402 118.40167 -19.856823 -169.1407 -24.232233 1.5683367
-32.182522 73.372261 -60.913273 85.707413 21.124355 170.63051 -20.947407 -52.835712
170000000 -19.907242 -172.78951 -24.254478 1.2736741 -55.179646 84.172729 -71.604584 7.8838382
21.1012 170.20892 -20.994928 -53.909843 -31.079596 72.16481 -57.11768 98.002983
-57.004257 68.900703 -76.008133 33.454254 -19.880915 -170.83372 -24.286064 1.4287031
-31.694786 72.997948 -57.88839 90.855209 21.118927 170.4104 -21.171011 -52.696873
180000000 -20.007841 -173.98677 -24.267717 1.2795436 -56.153862 86.149086 -72.947166 109.51596
21.092186 169.99702 -21.098459 -54.070515 -30.625622 71.636475 -59.022194 82.395149
-56.316437 74.341484 -72.23011 121.54156 -19.884109 -172.58162 -24.278311 1.0975823
-31.220848 73.165031 -57.339382 97.136993 21.110527 170.16525 -21.292471 -53.134251
190000000 -20.024313 -175.54781 -24.278748 0.91358989 -56.699585 84.839539 -80.979675 105.13055
21.089134 169.73172 -21.111399 -54.241333 -30.139387 70.697823 -59.068935 85.23793
-56.860569 91.21331 -76.638794 144.43584 -19.916086 -174.11861 -24.234627 0.7064569
-30.791313 72.447578 -59.055923 100.41925 21.1014 169.94267 -21.369926 -53.384823
200000000 -20.006773 -176.77538 -24.241392 0.371622 -55.682041 81.091095 -77.96701 -108.20594
21.081806 169.47366 -21.143131 -54.974628 -29.711008 70.750954 -58.039051 94.06382
-56.494301 91.175842 -77.092628 -97.493927 -19.916796 -175.59431 -24.276924 0.40583614
-30.312412 72.196289 -58.753647 97.806511 21.091703 169.70203 -21.458778 -54.318287
210000000 -20.061253 -178.56148 -24.258173 0.59516406 -54.124638 86.268677 -70.264374 -34.466988
21.073124 169.21007 -21.164469 -55.08522 -29.412596 70.561607 -55.687431 83.987045
-54.666355 88.466141 -73.279396 22.263296 -20.027699 -176.08356 -24.228823 0.48633775
-29.950741 72.240524 -58.126011 84.620987 21.099356 169.32771 -21.343313 -54.328812
220000000 -20.122969 -179.91219 -24.238295 0.27892521 -53.852112 83.902557 -72.813904 116.89839
21.069412 168.92458 -21.209085 -55.597244 -28.984999 70.171921 -57.259861 81.988274
-54.743149 89.652496 -73.405693 -2.4914548 -20.096426 -177.61952 -24.233288 0.041492324
-29.54463 71.581314 -55.517021 98.415833 21.093365 169.04807 -21.389355 -54.493816
230000000 -20.093967 178.64326 -24.25292 0.0058102435 -53.650764 81.021973 -88.776787 141.30095
21.0606 168.64133 -21.212484 -56.288448 -28.650976 69.820488 -56.528545 89.94381
-54.833702 72.104172 -69.988106 -88.184212 -20.111715 -178.9288 -24.258429 0.31111816
-29.263052 70.998123 -56.613289 93.846313 21.086477 168.73637 -21.500086 -54.58889
240000000 -20.238567 177.45163 -24.219023 0.10287541 -53.341522 84.441299 -73.816132 134.03683
21.058538 168.34868 -21.253685 -56.063869 -28.258736 69.336929 -55.24873 89.0327
-55.63739 82.46096 -66.78582 152.43625 -20.219599 -179.95599 -24.253525 0.20448582
-28.862066 69.956093 -58.007591 96.528633 21.085249 168.44226 -21.412413 -54.331429
250000000 -20.285215 176.32941 -24.232531 0.2401237 -52.907383 87.297104 -65.626617 86.782768
21.054024 168.03589 -21.232935 -56.47686 -27.893749 68.703758 -54.865013 87.234535
-53.499485 78.89019 -70.157921 90.046036 -20.260147 178.91217 -24.240232 -0.1261175
-28.461788 69.366051 -54.078445 93.172562 21.082729 168.1561 -21.404924 -54.416367
260000000 -20.292053 175.16173 -24.22258 -0.33294353 -51.34024 77.657967 -76.223511 61.47052
21.059063 167.70894 -21.19739 -57.172142 -27.587963 68.253624 -54.757793 84.204803
-58.873817 81.131104 -77.092705 62.297657 -20.330881 177.92024 -24.225794 -0.64414614
-28.317713 69.627472 -55.047646 97.971893 21.083609 167.85225 -21.514875 -54.253548
270000000 -20.438517 174.29178 -24.257372 0.016522406 -53.564083 77.054863 -65.760834 18.527523
21.050747 167.39052 -21.077522 -57.71611 -27.20682 67.164658 -54.499577 87.876282
-54.189575 67.962044 -69.09539 32.046852 -20.365122 176.82719 -24.199688 -0.50245082
-27.902201 68.59848 -56.973003 90.410736 21.075392 167.55479 -21.498053 -55.876007
280000000 -20.461561 173.29645 -24.241959 -0.73150384 -52.682625 75.757576 -67.715645 136.17242
21.049303 167.07716 -21.079714 -57.99707 -26.971231 67.254356 -55.18782 96.721428
-53.518135 81.075897 -73.866867 -136.50565 -20.398556 176.27649 -24.284994 -0.71048319
-27.597437 68.815048 -54.455818 84.729156 21.074003 167.18755 -21.39407 -56.516365
290000000 -20.531679 172.31184 -24.266872 -0.5179829 -52.312038 88.380501 -64.705605 112.1451
21.047815 166.7491 -20.997389 -58.106995 -26.728823 66.792496 -53.431854 90.114395
-52.970924 77.339691 -76.457825 169.56029 -20.559645 174.94469 -24.236097 -0.83097953
-27.199322 67.472054 -55.812962 87.752205 21.06916 166.87244 -21.352329 -56.745914
300000000 -20.576653 170.3728 -24.26367 -0.71608502 -49.991264 82.555275 -108.71793 -45.040901
21.043146 166.43069 -21.021614 -58.520691 -26.445808 66.709503 -53.857353 93.894714
-52.204056 83.115257 -70.627533 106.05266 -20.67943 173.91656 -24.24601 -0.61504316
-27.00807 67.536156 -55.882698 99.953758 21.072666 166.58138 -21.254015 -56.877304
310000000 -20.694748 170.05861 -24.212532 -0.79016632 -51.627243 73.911842 -68.968071 166.41132
21.039848 166.10541 -20.869736 -58.992207 -26.088898 66.420242 -53.374977 90.533112
-52.371021 82.539177 -71.794731 47.820702 -20.738605 172.73698 -24.26165 -0.87576085
-26.767056 66.898209 -52.645927 83.907089 21.065424 166.20667 -21.202133 -57.145977
320000000 -20.612473 168.7141 -24.172146 -1.0319067 -51.099552 83.068558 -73.090958 126.89127
21.039019 165.77039 -20.896004 -59.729603 -25.989202 65.145638 -53.781029 96.233803
-52.461002 80.712029 -71.216331 -22.320841 -20.720058 171.85262 -24.262295 -0.93610197
-26.487757 67.055305 -54.755531 84.294769 21.068346 165.87804 -21.186554 -57.52552
330000000 -20.687468 167.77773 -24.273659 -0.84829688 -50.295261 76.722534 -80.843102 -53.298878
21.044487 165.40938 -20.911398 -60.549923 -25.606985 65.136665 -52.868019 88.854073
-51.371628 79.285934 -70.855453 140.31796 -20.711535 170.92328 -24.192057 -0.94042879
-26.12508 66.442307 -54.177471 89.880341 21.067898 165.52663 -21.224192 -58.800457
340000000 -20.740944 166.8187 -24.182344 -1.3480188 -51.486816 80.711205 -74.367432 -130.87061
21.038651 165.02658 -20.844904 -61.220932 -25.382223 64.775101 -52.859066 91.452316
-51.03479 79.065239 -65.943726 124.52636 -20.71216 170.39651 -24.22506 -1.554052
-25.817799 65.64093 -52.21133 93.776764 21.067194 165.20464 -21.163048 -59.39547
350000000 -20.798882 166.52052 -24.180208 -0.99316221 -49.24284 83.096939 -74.58387 -70.112785
21.03618 164.70786 -20.810787 -61.937141 -24.980381 64.157623 -53.240841 86.227058
-50.143093 89.889603 -86.844444 44.885113 -20.742075 169.61357 -24.234051 -1.6108055
-25.612492 65.422295 -54.290188 86.680115 21.056049 164.8257 -21.217651 -61.246429
360000000 -20.764368 165.00117 -24.238688 -1.6247318 -50.224293 76.647446 -69.542992 146.91945
21.033291 164.36841 -20.791508 -62.403156 -24.814917 63.53474 -52.080132 92.289658
-50.200115 87.739098 -75.217812 124.19225 -20.891781 168.28697 -24.281155 -1.1002177
-25.357002 64.318642 -52.85738 94.467567 21.069649 164.53275 -21.228657 -60.179745
370000000 -20.747429 163.72511 -24.230036 -1.582544 -49.684208 76.318016 -68.053581 40.471638
21.033024 164.01743 -20.688953 -63.406937 -24.570671 63.004772 -52.085564 91.407135
-51.297058 82.619072 -65.687454 64.358025 -20.94648 168.13249 -24.214802 -1.4889576
-25.152475 63.875034 -51.185612 92.45974 21.068766 164.158 -21.00893 -62.12986
380000000 -20.853706 162.6767 -24.215689 -1.5421469 -50.752079 76.632133 -70.800972 131.60016
21.033293 163.67015 -20.672209 -64.101501 -24.337629 62.081059 -51.903385 90.190651
-50.365635 75.989693 -81.877548 -46.652096 -20.924458 166.34131 -24.187475 -1.7181537
-24.926781 63.358891 -54.153545 96.530952 21.059954 163.79543 -21.000195 -62.659454
390000000 -20.823313 161.9659 -24.179235 -2.037204 -50.346115 78.374306 -77.691185 51.946777
21.031807 163.32272 -20.675268 -65.251823 -24.155142 61.600014 -51.080944 87.912079
-50.215244 82.266243 -73.855812 117.74921 -20.927908 165.99681 -24.197819 -2.0437281
-24.705887 62.721779 -51.959358 92.560631 21.058886 163.40596 -20.892471 -64.17205
400000000 -20.834269 161.01839 -24.212858 -1.6976788 -49.519032 77.567879 -69.753555 70.717262
21.031282 162.9738 -20.595367 -65.793686 -23.95422 61.015343 -51.086563 86.427544
-50.946709 78.192909 -66.863106 107.11274 -20.851997 164.72725 -24.275696 -2.006201
-24.549509 61.822384 -51.507263 92.784859 21.060387 163.09496 -20.926332 -64.400665
410000000 -20.779104 160.22063 -24.174124 -1.6513107 -49.157806 81.611679 -65.576195 115.81356
21.032322 162.61664 -20.571472 -66.769073 -23.775702 60.461292 -50.808773 94.558289
-49.665707 71.922478 -66.81955 14.678692 -20.792538 163.8129 -24.223074 -1.7223361
-24.308397 61.360527 -51.052021 95.820114 21.059582 162.72285 -21.10778 -65.22403
420000000 -20.72756 159.71919 -24.221022 -1.8701661 -49.501755 73.093727 -70.373863 58.195808
21.029007 162.20833 -20.5249 -68.328377 -23.530178 59.811024 -49.698219 85.986313
-49.775974 77.516708 -71.365746 -43.981617 -20.836214 162.9342 -24.263033 -1.9147118
-24.141695 60.73922 -50.889297 93.033875 21.060946 162.37125 -21.100084 -66.066002
430000000 -20.709808 158.35062 -24.1819 -2.2985864 -48.756191 75.274284 -74.776886 129.2211
21.030457 161.87474 -20.473808 -69.077751 -23.335665 59.276501 -50.455074 85.221687
-50.849648 79.934135 -69.523308 165.13783 -20.728813 162.4308 -24.201426 -2.1263738
-23.916382 60.256851 -51.108955 96.628952 21.060202 161.95364 -21.002066 -67.50351
440000000 -20.758001 157.23692 -24.176241 -2.2043104 -48.959404 78.858833 -66.230675 43.402069
21.026791 161.53421 -20.488804 -70.079849 -23.216192 58.920826 -49.519863 86.98912
-49.258423 80.140999 -70.460442 137.15314 -20.728054 161.18681 -24.130234 -2.1373832
-23.743984 59.746937 -51.348045 93.946899 21.054348 161.6411 -21.075378 -69.091331
450000000 -20.709589 157.4716 -24.223892 -2.4503405 -48.995728 74.794739 -64.918137 160.57855
21.030371 161.15591 -20.423462 -71.375099 -23.025236 58.166309 -50.786549 97.570419
-48.765923 78.075706 -72.708588 158.56906 -20.701473 160.98303 -24.181572 -2.1360693
-23.552868 59.343506 -49.9328 95.357552 21.048334 161.3168 -20.977884 -70.588127
460000000 -20.67732 156.44559 -24.198727 -2.3282552 -48.319328 74.356216 -71.178719 123.76904
21.030327 160.81003 -20.371117 -72.321815 -22.83392 57.495934 -50.095482 93.240089
-49.220642 79.535309 -65.948204 132.98041 -20.774137 160.21323 -24.194613 -2.3052235
-23.400856 58.436073 -50.776646 98.593109 21.059088 160.9061 -20.920345 -71.417473
470000000 -20.675543 155.86925 -24.197647 -2.4347341 -48.319721 75.932747 -69.759209 77.746201
21.02622 160.41965 -20.291086 -73.050003 -22.653543 56.958633 -50.154266 89.77507
-49.386288 79.724472 -68.351776 -49.107071 -20.753544 159.47578 -24.173635 -2.9178004
-23.199594 58.236523 -50.846336 91.093407 21.059589 160.55316 -20.761633 -71.942497
480000000 -20.663633 154.81691 -24.196341 -2.6652646 -48.232864 72.307846 -72.952637 135.40797
21.026363 160.05467 -20.350386 -73.953705 -22.46306 56.487061 -49.662296 89.849823
-48.192543 74.077812 -67.326309 28.34705 -20.737347 158.9211 -24.190435 -2.8315964
-23.064177 57.608521 -49.464592 91.524017 21.060711 160.17943 -20.762932 -72.950867
490000000 -20.624107 153.45801 -24.162735 -2.7407808 -47.944752 77.728767 -72.305496 90.671028
21.032198 159.69827 -20.25108 -74.818291 -22.320568 55.787598 -48.71513 89.382889
-48.276588 75.972916 -69.880173 22.785593 -20.670422 157.83038 -24.167459 -2.960494
-22.878366 57.258381 -49.7411 95.605507 21.061491 159.84663 -20.804773 -73.751564
500000000 -20.59572 153.11826 -24.165104 -2.6441643 -47.862572 73.125992 -70.556831 85.702133
21.026806 159.33586 -20.242697 -75.975128 -22.138775 55.391247 -49.280685 88.180664
-49.147949 78.587341 -75.840637 96.625969 -20.614859 157.02025 -24.203581 -2.4596076
-22.696091 56.474045 -49.825951 92.644943 21.056578 159.46599 -20.809017 -75.046371
510000000 -20.589622 152.84729 -24.162964 -2.7622595 -47.637764 74.954414 -66.784996 120.37328
21.028774 158.93333 -20.174677 -76.826675 -21.965458 54.694443 -49.558617 94.263893
-49.068283 76.229599 -74.671837 -36.383671 -20.575098 156.69336 -24.207996 -2.7624009
-22.557581 55.826729 -49.752056 91.664879 21.054256 159.10251 -20.82711 -76.860138
520000000 -20.497898 152.47665 -24.133654 -3.1284075 -47.221214 79.786339 -75.965149 141.86929
21.031128 158.57463 -20.115822 -78.219635 -21.788746 54.337666 -48.480076 91.559219
-48.399799 74.586067 -66.983917 87.535736 -20.5854 156.10033 -24.151285 -3.0004582
-22.377327 55.371086 -49.062492 93.316742 21.052158 158.6891 -20.766954 -77.79985
530000000 -20.507425 151.67731 -24.166494 -3.0283356 -48.129131 75.762413 -72.577065 164.01732
21.02968 158.20599 -20.095739 -79.64872 -21.668936 53.909775 -48.264217 92.994308
-48.359947 83.101486 -69.936035 131.10812 -20.557375 155.57649 -24.127848 -2.738656
-22.182331 54.970856 -49.048828 91.226334 21.055922 158.34764 -20.719004 -79.502434
540000000 -20.515335 150.95531 -24.166079 -3.1581812 -46.838715 75.15583 -76.974136 -156.33153
21.027651 157.79721 -20.02759 -80.621742 -21.504992 52.990532 -48.588463 91.33815
-47.683807 74.865387 -69.213898 139.31137 -20.544863 155.30443 -24.16012 -2.8982821
-22.049824 54.224171 -49.022102 97.269737 21.063456 157.9704 -20.666201 -81.062248
550000000 -20.505199 150.18484 -24.147635 -3.0849528 -47.136692 77.474663 -69.2603 126.07554
21.024332 157.43146 -20.065828 -81.490593 -21.352839 52.60767 -48.146603 91.789078
-48.310795 75.282318 -78.097862 -59.367138 -20.487364 154.93016 -24.137461 -3.4136634
-21.887154 53.693649 -48.651608 95.857971 21.059824 157.59395 -20.536469 -81.632324
