!Mini-Circuits Laboratory
!S-Parameters
!Model: MGVA-63+
!Run / Lot / Date Code: NA / AH404P001-04 / 1348
!Fixture: NA; TB-561+
!AUTO PORT EXTENSION DONE: PORT<1>=113.62ps; PORT<2>=112.79ps; PORT<3>=112.29ps; PORT<4>=112.3ps
!Network Analyzer: PNA-X N5242A - 423 4 ports;  Serial number: 71256
!Date: 2/10/20114
!S/N: Unit# 1
!Correction: S11(Full 4 Port(1,2,3,4)) 
!S12(Full 4 Port(1,2,3,4)) 
!S13(Full 4 Port(1,2,3,4)) 
!S14(Full 4 Port(1,2,3,4)) 
!S21(Full 4 Port(1,2,3,4)) 
!S22(Full 4 Port(1,2,3,4)) 
!S23(Full 4 Port(1,2,3,4)) 
!S24(Full 4 Port(1,2,3,4)) 
!S31(Full 4 Port(1,2,3,4)) 
!S32(Full 4 Port(1,2,3,4)) 
!S33(Full 4 Port(1,2,3,4)) 
!S34(Full 4 Port(1,2,3,4)) 
!S41(Full 4 Port(1,2,3,4)) 
!S42(Full 4 Port(1,2,3,4)) 
!S43(Full 4 Port(1,2,3,4)) 
!S44(Full 4 Port(1,2,3,4)) 
!S4P File: Measurements: <S11,S12,S13,S14>,
!<S21,S22,S23,S24>,
!<S31,S32,S33,S34>,
!<S41,S42,S43,S44>:
# Hz S  dB   R 50
10000000 -11.397169 -48.537655 -28.338043 27.13479 -36.069889 158.03432 -48.614529 142.61345
24.283905 169.27034 -6.7253194 -28.905399 -26.24221 167.04051 -38.999123 151.13928
-41.425682 157.69907 -47.149155 147.42079 -11.237081 -48.298027 -28.064747 25.950603
-29.720503 155.44989 -36.081486 150.04007 24.257015 168.82356 -6.5795946 -29.640242
20000000 -13.687488 -78.64296 -25.747488 18.354458 -64.750107 158.09537 -88.955627 -81.86528
23.080051 166.42163 -9.1908379 -46.35268 -46.486187 70.872398 -65.782356 46.924156
-61.561188 175.15364 -65.292992 17.134737 -13.649867 -77.802818 -25.535753 18.071196
-47.473343 59.823147 -59.271008 -4.661036 23.110432 166.30838 -9.2049856 -45.650379
30000000 -15.578232 -98.934875 -25.032679 14.047401 -63.145561 -162.33768 -67.050468 -86.746773
22.362539 167.21632 -11.659394 -53.339382 -43.410122 73.300133 -65.260941 154.00412
-65.229576 116.3007 -61.020603 97.607399 -15.510769 -99.01899 -25.10022 13.425618
-44.317749 68.356422 -66.550194 -6.4551878 22.388371 167.04048 -11.692191 -53.612652
40000000 -16.751436 -113.51178 -24.778389 10.522083 -67.462563 73.020264 -74.617699 145.29758
21.977943 168.40184 -13.59568 -56.52076 -41.735767 68.267639 -63.011627 102.38931
-67.874954 -64.277794 -69.634026 109.1577 -16.793251 -113.3073 -24.788494 10.589898
-42.69854 71.04628 -62.848789 93.293831 21.99589 168.30356 -13.632954 -56.270031
50000000 -17.580648 -124.0649 -24.634245 9.6504469 -56.78931 157.17215 -57.449352 79.776428
21.762852 169.39084 -15.13828 -57.168034 -40.720287 74.527481 -61.878708 92.147278
-66.525681 -86.714264 -62.444271 82.926773 -17.465349 -124.78983 -24.628023 9.3979168
-41.321056 71.784042 -62.309841 62.808479 21.764946 169.24474 -15.212286 -57.186771
60000000 -18.225689 -133.93925 -24.426136 5.962769 -51.502346 54.400215 -56.662956 -49.320061
21.584312 170.15546 -16.357838 -57.692581 -38.90456 76.135483 -58.770023 72.345757
-59.719517 78.628914 -60.906914 -70.006821 -18.040686 -133.97989 -24.583668 6.8132854
-39.133759 78.660789 -57.731262 -18.474491 21.612261 170.32422 -16.273531 -58.010586
70000000 -18.411089 -141.01353 -24.551958 5.6403365 -62.683407 92.099434 -90.277489 156.52388
21.512276 170.59195 -17.367693 -58.456112 -37.688526 71.235268 -69.648338 20.83215
-63.008953 83.283234 -66.038719 -78.094048 -18.399876 -140.4857 -24.505728 5.7153225
-38.505238 73.867165 -81.379158 110.95947 21.523575 170.68961 -17.390097 -58.004234
80000000 -18.60465 -147.09349 -24.446135 5.039897 -62.235825 96.630646 -76.918022 -11.706731
21.450039 170.85426 -18.215538 -58.483006 -36.577011 72.475845 -63.608131 77.130791
-64.421509 114.64691 -76.875816 -113.41491 -18.621483 -147.1283 -24.465384 5.121644
-37.470078 74.926338 -70.367134 91.324646 21.46114 170.96867 -18.31065 -57.922935
90000000 -18.734518 -152.22835 -24.459909 4.2879376 -59.313961 64.835182 -74.443375 -12.777014
21.403793 171.03322 -18.970428 -58.130497 -35.759712 71.731476 -64.779762 68.462029
-62.76936 92.419762 -84.236984 -34.104736 -18.765036 -152.22755 -24.474821 4.1873198
-36.642094 75.034325 -70.000587 66.911613 21.414841 171.16998 -19.063622 -57.672314
100000000 -18.862122 -156.45448 -24.419167 3.5311685 -58.843788 90.087151 -73.882462 -10.258769
21.368006 171.09082 -19.598644 -57.887474 -34.931667 73.519524 -61.297615 59.005348
-62.481659 71.997841 -72.369232 26.05089 -18.810732 -156.03923 -24.410858 3.7175961
-35.823456 74.524834 -66.323753 65.565971 21.376625 171.20067 -19.673285 -57.681179
110000000 -18.887669 -160.16257 -24.434952 3.3938327 -58.780575 89.273888 -88.281898 100.14778
21.342003 171.04906 -20.092478 -57.874195 -34.279045 73.772575 -63.860012 75.776047
-61.10302 102.30117 -72.07885 -35.942524 -18.83778 -159.70737 -24.451042 3.0932119
-35.100849 73.961708 -61.953411 91.053658 21.354399 171.13976 -20.238983 -57.658421
120000000 -18.903011 -163.28017 -24.41703 2.5685575 -57.130955 85.402283 -81.164551 26.100487
21.315832 170.98062 -20.501564 -58.188232 -33.617378 73.290909 -59.668446 82.963791
-59.796692 71.928596 -73.363342 77.708817 -18.836084 -162.87978 -24.41736 2.7815084
-34.269047 74.731773 -62.693348 92.752708 21.333506 171.10931 -20.670521 -57.853603
130000000 -18.82019 -165.77635 -24.457138 3.0120924 -60.311665 72.404343 -66.700188 7.7157283
21.290569 170.89714 -20.914902 -59.032459 -32.956047 72.558014 -60.329567 85.070885
-59.90889 88.838623 -72.003624 -125.61721 -18.842829 -165.16704 -24.432796 2.7417219
-33.601578 73.445663 -59.427952 85.73465 21.311741 170.95526 -21.003994 -58.191628
140000000 -18.848679 -168.21445 -24.436171 1.8175125 -58.549534 75.810333 -75.744598 176.83101
21.282904 170.71927 -21.228518 -59.129276 -32.368233 71.657196 -59.59967 102.55896
-57.200306 81.03067 -85.717178 95.143471 -18.827675 -167.39496 -24.453449 2.4363017
-32.997055 73.488525 -58.969296 96.261856 21.301895 170.81174 -21.332127 -58.353279
150000000 -18.795599 -170.55536 -24.441763 1.6929675 -55.805386 73.640625 -86.141708 -23.125095
21.269211 170.56064 -21.518663 -59.699482 -31.671982 71.797325 -60.325108 106.15812
-57.186993 92.985168 -85.316872 30.415089 -18.822268 -169.83418 -24.470684 1.4824402
-32.284462 73.354141 -61.173664 92.141785 21.279732 170.75259 -21.595163 -58.434258
160000000 -18.814636 -172.87682 -24.392645 1.464604 -56.061893 81.370811 -71.897736 61.367058
21.260593 170.35693 -21.739876 -60.107441 -31.350702 71.860016 -58.12328 90.873505
-57.36084 77.553558 -71.296806 -0.8431564 -18.777893 -171.44566 -24.415155 1.5856315
-31.92877 73.527534 -58.416504 88.939156 21.267298 170.52414 -21.874304 -59.181801
170000000 -18.779102 -174.38113 -24.474039 0.86771095 -57.161461 79.77272 -73.069321 -95.482323
21.249306 170.11417 -21.903938 -60.883663 -30.779066 71.542618 -58.974869 98.64286
-57.370193 89.886345 -85.094025 -102.27886 -18.803171 -173.1886 -24.400679 1.3962538
-31.435633 72.764847 -59.78616 92.300186 21.260965 170.30206 -22.10078 -59.192146
180000000 -18.83145 -175.92703 -24.432346 0.86139518 -55.096561 77.790611 -70.68042 -174.64098
21.241264 169.90033 -22.029562 -60.786282 -30.340975 71.340538 -57.591675 91.214943
-57.177406 84.506027 -72.806755 24.221601 -18.791977 -174.49445 -24.439816 0.98475236
-30.878542 72.574036 -57.620895 96.094101 21.252794 170.05624 -22.250479 -59.83754
190000000 -18.840151 -177.4129 -24.419611 0.89891714 -56.274742 86.189178 -70.747627 175.61473
21.236944 169.63196 -22.084997 -61.153164 -29.981871 71.077217 -56.837307 78.762085
-54.600536 77.825645 -84.731567 -55.54723 -18.807316 -176.02669 -24.373577 0.78461212
-30.414495 71.947716 -57.495975 99.948441 21.243704 169.83247 -22.3328 -60.167805
200000000 -18.835503 -178.42957 -24.376741 0.40020016 -54.234184 94.79966 -76.260185 -38.090252
21.229067 169.36716 -22.104391 -61.637539 -29.540937 71.126648 -57.600334 78.749008
-57.253765 85.683594 -73.835419 58.880657 -18.785513 -177.29785 -24.461662 0.55086535
-30.175089 71.722542 -59.55711 86.813515 21.235176 169.59235 -22.416248 -60.923901
210000000 -18.856268 -179.97523 -24.381416 0.64395458 -55.446564 69.93515 -69.691719 154.51564
21.218954 169.10652 -22.194265 -62.475658 -28.998419 70.253387 -56.959988 86.271919
-55.158531 88.228767 -70.9758 83.081001 -18.882027 -177.9939 -24.386675 0.37698692
-29.664644 71.802734 -57.575142 96.899826 21.240911 169.21658 -22.390293 -60.821606
220000000 -18.891918 178.8586 -24.417543 0.23937732 -53.324974 83.077263 -69.604965 69.033455
21.217497 168.82625 -22.176832 -62.376293 -28.658087 69.834793 -56.796539 82.998367
-55.048199 78.122391 -72.483459 -152.44592 -18.937639 -179.33398 -24.352722 0.48508117
-29.329847 70.753059 -56.128708 88.72142 21.23535 168.92964 -22.395775 -61.356766
230000000 -18.914577 177.48216 -24.407379 0.019042881 -53.579376 80.311066 -71.179955 32.248264
21.206722 168.52765 -22.241449 -63.249535 -28.314316 69.469917 -56.182068 89.74588
-53.93581 84.731949 -79.078033 12.634827 -18.935432 179.61514 -24.371412 0.085306339
-28.98871 70.645935 -56.552238 95.3517 21.229509 168.62093 -22.550343 -61.165752
240000000 -19.022095 176.14471 -24.386141 0.051261026 -52.855862 81.616585 -70.782036 -177.61046
21.206921 168.23907 -22.297703 -63.104153 -27.99436 68.847939 -55.965107 88.125534
-54.521282 83.465439 -72.980499 100.25028 -19.033855 178.57272 -24.439302 0.0084868269
-28.592964 70.133575 -54.993309 93.700638 21.227488 168.31847 -22.516899 -61.144039
250000000 -19.024048 175.35213 -24.421993 -0.40202671 -52.613091 76.063698 -70.712875 99.43251
21.20126 167.93588 -22.23925 -63.519291 -27.604353 68.549019 -54.006245 94.531288
-53.390415 89.183762 -75.946953 -158.201 -19.053196 177.66283 -24.429632 -0.20247094
-28.185478 70.219482 -56.82003 90.610718 21.223387 168.03125 -22.510653 -61.334251
260000000 -19.057981 173.98589 -24.418301 -0.24662811 -51.076775 86.674477 -67.57476 145.79514
21.208006 167.58623 -22.23708 -63.807129 -27.303665 68.073929 -54.531345 93.797523
-51.937283 87.408974 -68.037468 103.62575 -19.14452 176.66241 -24.375124 -0.44445115
-27.772139 69.348335 -53.322399 88.346832 21.224409 167.72914 -22.532215 -61.472755
270000000 -19.174364 173.1328 -24.387508 -0.83908039 -53.069134 85.566803 -75.677895 77.479828
21.197189 167.29222 -22.102293 -64.651047 -26.95167 67.623917 -53.991299 93.745918
-53.804562 88.540176 -70.41037 -149.55714 -19.123392 175.37862 -24.403336 -0.46968785
-27.57136 68.404144 -54.990814 89.202492 21.218674 167.42206 -22.52614 -62.355339
280000000 -19.176632 172.4978 -24.424301 -0.43611956 -52.42934 80.578636 -74.311264 43.969601
21.196457 166.95248 -22.080818 -64.857956 -26.664743 67.178192 -54.519516 75.804008
-52.092556 80.908379 -71.399788 -177.84586 -19.172215 174.73935 -24.400473 -0.83596337
-27.25593 68.003471 -54.080353 96.999329 21.213951 167.05254 -22.381765 -63.164669
290000000 -19.266079 171.56116 -24.403683 -0.7075544 -51.300392 71.59391 -65.970192 166.62347
21.194918 166.62827 -21.993158 -64.688194 -26.331705 66.822189 -53.822182 84.627434
-53.527809 80.001259 -72.616219 178.66513 -19.297449 173.73328 -24.426073 -0.68633205
-26.999182 67.340065 -53.927383 83.801567 21.209194 166.75044 -22.387094 -63.346714
300000000 -19.269634 169.89772 -24.398369 -0.82496744 -50.937424 79.819931 -71.199768 114.97729
21.190018 166.31459 -22.080641 -65.169205 -26.070717 66.749413 -53.944008 91.605522
-52.432796 81.955727 -66.532997 77.825882 -19.446331 172.78256 -24.402403 -1.1324327
-26.657022 67.436943 -55.554729 88.074158 21.214025 166.45193 -22.272587 -63.399605
310000000 -19.393959 169.51761 -24.402838 -0.93415612 -50.564266 75.84285 -72.991943 -9.6339798
21.187187 165.98297 -21.88694 -65.478355 -25.846149 65.565651 -52.265507 85.18499
-53.801605 86.004539 -79.562538 170.04222 -19.447699 171.88129 -24.376053 -0.80260074
-26.463398 66.6558 -53.695953 91.354179 21.204651 166.06947 -22.239916 -63.84988
320000000 -19.321455 168.23367 -24.380171 -1.2054538 -51.421844 86.043205 -69.75827 172.68987
21.186987 165.64056 -21.92786 -66.690308 -25.603872 65.35865 -53.938648 85.286507
-51.787159 80.945076 -63.927479 123.92324 -19.411329 170.90707 -24.357597 -0.9880321
-26.275543 66.680725 -52.647633 113.45705 21.209318 165.73999 -22.249771 -64.002449
330000000 -19.397764 167.35146 -24.35569 -1.4320709 -51.293896 77.646378 -74.704498 142.2261
21.189116 165.27783 -21.886341 -67.124733 -25.389433 64.916542 -53.223763 89.973846
-52.598728 76.147812 -74.663147 -125.8898 -19.448252 170.17638 -24.432842 -1.2696599
-25.9238 65.749702 -53.562103 89.245239 21.207983 165.39055 -22.258364 -65.620972
340000000 -19.417124 166.38986 -24.32922 -1.2363312 -50.28511 82.877884 -78.179482 151.31337
21.183874 164.88705 -21.8454 -68.060776 -25.074976 64.071182 -52.466595 93.279266
-51.045349 85.33654 -68.833839 147.22269 -19.462805 169.57988 -24.388315 -1.0806394
-25.513168 65.300591 -51.769669 91.798332 21.207111 165.05458 -22.253813 -66.105354
350000000 -19.511982 165.85832 -24.416748 -1.1051672 -51.484554 78.74897 -69.542969 22.81111
21.179085 164.57269 -21.818541 -68.933456 -24.784168 63.559605 -51.052902 88.185692
-51.090694 72.427383 -77.191315 30.285414 -19.456736 169.0737 -24.351089 -1.5945799
-25.384668 64.120911 -52.956993 96.813995 21.197289 164.66423 -22.216328 -67.862839
360000000 -19.457315 164.75786 -24.360205 -1.4578885 -51.136921 82.518127 -64.363716 52.577953
21.179874 164.23962 -21.721199 -69.284882 -24.49333 63.12706 -51.160358 96.084869
-50.79073 74.536842 -65.009483 101.59799 -19.589558 167.76553 -24.337816 -1.3214902
-25.097523 64.470818 -51.681683 83.82988 21.208742 164.37469 -22.221758 -66.922279
370000000 -19.449858 163.69611 -24.375151 -1.6476545 -51.018391 77.477272 -69.080223 121.85966
21.178503 163.87711 -21.649281 -70.095505 -24.291843 62.531559 -51.273643 86.427284
-50.987476 79.756226 -65.807236 50.618469 -19.636044 167.40462 -24.38249 -1.4880984
-24.868616 63.494164 -51.526485 85.139565 21.208847 163.98819 -22.027582 -68.803459
380000000 -19.520142 162.84784 -24.379887 -1.4883893 -49.355072 79.646614 -70.5364 97.0326
21.176353 163.53218 -21.614063 -70.730568 -24.11224 62.059845 -50.708752 88.603851
-50.449181 77.97995 -68.311661 -0.13607614 -19.629988 165.92108 -24.330297 -1.5115861
-24.655172 63.071949 -51.715038 87.935608 21.199944 163.64174 -22.050671 -69.286095
390000000 -19.489092 162.18826 -24.316395 -1.5406054 -49.566463 78.129288 -71.350525 41.03244
21.176201 163.17868 -21.616713 -72.203995 -23.857122 61.030861 -50.309677 86.805901
-50.321033 81.694672 -71.314178 60.628441 -19.609592 165.40407 -24.371126 -1.7688599
-24.453865 62.360645 -50.869373 96.090828 21.19878 163.24167 -21.88172 -70.547043
400000000 -19.495195 160.92157 -24.367081 -1.9034314 -49.779476 73.006332 -69.58989 32.906944
21.177731 162.81927 -21.504606 -72.428978 -23.656105 60.324368 -49.830063 88.362114
-48.838749 69.595009 -67.655861 51.737209 -19.619415 164.7457 -24.357157 -1.7563304
-24.197454 61.622211 -50.902618 90.477577 21.2003 162.93765 -21.895411 -70.944946
410000000 -19.471556 160.42099 -24.376976 -2.051105 -50.098076 72.24556 -73.466431 -161.95946
21.174282 162.45772 -21.484383 -73.535324 -23.476074 60.079716 -51.273998 90.493118
-49.508121 79.938499 -73.646767 25.008141 -19.48724 163.44289 -24.410889 -2.2205257
-24.026535 61.241074 -51.165928 92.34008 21.197119 162.55879 -22.087934 -71.967003
420000000 -19.438406 159.81015 -24.321341 -2.108947 -48.871693 75.968086 -73.054665 119.40126
21.175478 162.05075 -21.433367 -74.970711 -23.25766 59.473614 -50.466515 83.96891
-50.968651 74.789383 -67.945045 153.45561 -19.541967 162.64961 -24.358358 -2.1533127
-23.846838 60.433945 -51.697781 92.252693 21.200233 162.19582 -22.107489 -73.08931
430000000 -19.399797 158.89415 -24.340607 -1.7625995 -48.730625 73.843651 -73.662193 -72.030357
21.174585 161.71349 -21.385015 -75.791908 -23.062948 58.933811 -50.316387 85.667877
-49.522064 78.009102 -71.087349 38.485725 -19.464893 162.04958 -24.378561 -2.1522632
-23.610237 60.143913 -50.601624 90.395554 21.199091 161.77832 -21.936121 -74.263634
440000000 -19.41431 157.65172 -24.355831 -2.1008084 -47.686352 77.288383 -70.141403 118.06825
21.170731 161.38605 -21.38707 -76.804703 -22.907145 58.245846 -49.812115 90.106529
-48.892387 77.19252 -72.023842 149.25821 -19.472553 161.06638 -24.393797 -2.2986791
-23.474195 59.251053 -50.68755 90.31353 21.193655 161.45679 -22.024702 -76.029655
450000000 -19.442482 157.53973 -24.341812 -2.5549901 -48.332954 73.681244 -74.949989 112.25372
21.173643 160.97597 -21.260714 -77.97863 -22.712042 57.6558 -50.392437 91.66201
-49.155643 77.577362 -66.255112 98.077896 -19.415077 160.77617 -24.382475 -2.3258996
-23.331827 58.85622 -51.021168 91.967453 21.191437 161.12387 -21.87748 -77.404892
460000000 -19.391029 156.69304 -24.36628 -2.2513604 -48.303574 72.385017 -69.469429 101.48445
21.172518 160.63498 -21.189043 -78.912415 -22.538958 57.083683 -49.951267 85.429268
-48.270836 80.819458 -72.608139 76.269989 -19.503666 160.14958 -24.360846 -2.3821547
-23.097086 58.423336 -50.944859 90.137077 21.198467 160.72778 -21.796757 -78.085602
470000000 -19.42631 156.05865 -24.330986 -2.1908448 -47.513786 73.757729 -70.540329 49.233177
21.169695 160.25047 -21.16057 -79.484604 -22.346523 56.669609 -48.882179 91.551048
-49.520615 71.591011 -72.819275 158.86295 -19.545027 159.30391 -24.355045 -2.5767148
-22.914417 57.816631 -50.889194 90.606445 21.19751 160.36746 -21.667643 -78.599335
480000000 -19.414246 155.24225 -24.343325 -2.5632894 -48.023087 74.229622 -72.573479 79.061394
21.170519 159.88304 -21.186798 -80.683327 -22.195169 56.02552 -49.232002 87.523369
-48.789352 73.868019 -75.578659 111.05724 -19.467581 159.06021 -24.364779 -2.5394287
-22.739571 57.045483 -49.935703 87.845795 21.197794 160.00043 -21.645025 -79.403404
490000000 -19.357151 154.28073 -24.3248 -2.5697176 -47.632462 74.39209 -73.151375 67.615486
21.174221 159.53342 -21.091558 -81.501129 -22.015068 55.386185 -49.479305 88.868912
-47.806484 76.588127 -71.103607 94.208595 -19.408943 157.94507 -24.363785 -2.6083939
-22.582844 56.831379 -49.617184 93.240952 21.197861 159.65176 -21.643517 -80.530006
500000000 -19.312754 153.60893 -24.3312 -2.8712034 -47.37883 69.188805 -75.446785 57.470802
21.169985 159.15341 -21.027182 -82.473061 -21.843964 54.620029 -48.794201 86.34655
-48.332798 69.231453 -73.593277 165.38902 -19.362915 157.26605 -24.330151 -3.0022507
-22.398933 55.985191 -49.546337 91.446556 21.192568 159.2571 -21.635843 -81.845711
510000000 -19.331429 153.01868 -24.267977 -2.8799431 -47.270741 73.008865 -74.396576 -21.26856
21.171398 158.74928 -20.987677 -83.239868 -21.707895 54.449005 -48.343845 84.108231
-47.788448 74.299484 -72.138992 114.55239 -19.400934 156.77818 -24.332026 -3.101007
-22.231588 55.310089 -49.691853 85.564522 21.191622 158.90668 -21.637625 -83.763779
520000000 -19.242783 152.94522 -24.333942 -2.8063722 -46.989132 77.449356 -65.987038 138.42688
21.171661 158.38165 -20.884928 -85.048965 -21.493816 54.19257 -47.831001 92.555351
-47.639755 78.015327 -69.322998 78.103302 -19.329679 156.42076 -24.335724 -3.1629131
-22.105413 55.032799 -49.71714 87.213638 21.188454 158.48657 -21.609491 -84.726265
530000000 -19.289385 152.21338 -24.270916 -3.0409794 -46.989147 78.633125 -75.51593 79.560715
21.171833 158.01537 -20.864964 -86.249443 -21.380478 53.345325 -47.862816 88.007523
-47.78529 79.344322 -72.831093 -139.38411 -19.348629 155.8371 -24.322691 -2.8636293
-21.89242 54.379986 -48.741119 93.8759 21.192429 158.14453 -21.52767 -86.460243
540000000 -19.291725 151.59535 -24.303452 -2.9840052 -47.197124 69.810135 -68.322792 86.898018
21.169521 157.601 -20.771481 -87.35733 -21.248817 52.662243 -47.825352 84.401726
-47.947067 79.840233 -79.017151 72.74781 -19.335508 155.34235 -24.335073 -3.4937906
-21.772541 53.771805 -49.464256 89.018707 21.201166 157.75438 -21.44475 -87.813072
550000000 -19.269255 150.8595 -24.280355 -3.1073167 -46.695675 70.993706 -70.474251 129.82695
21.165009 157.2348 -20.7892 -88.16571 -21.061039 52.004971 -47.555157 90.140923
-47.451195 74.331032 -81.805946 169.53877 -19.301121 154.80716 -24.295563 -3.2210143
-21.644518 53.065224 -48.964035 86.088036 21.194609 157.38417 -21.309954 -88.4161
