!Mini-Circuits Laboratory
!S-Parameters
!Model: MPGA-105+
!Run / Lot / Date Code: NA / BP384P001-05 / 1348
!Fixture: NA; TB-561+
!AUTO PORT EXTENSION DONE: PORT<1>=113.35ps; PORT<2>=112.76ps; PORT<3>=112.16ps; PORT<4>=112.11ps
!Network Analyzer: PNA-X N5242A - 423 4 ports;  Serial number: 71256
!Date: 2/15/2014
!S/N: Unit# 1
!Correction: S11(Full 4 Port(1,2,3,4)) 
!S12(Full 4 Port(1,2,3,4)) 
!S13(Full 4 Port(1,2,3,4)) 
!S14(Full 4 Port(1,2,3,4)) 
!S21(Full 4 Port(1,2,3,4)) 
!S22(Full 4 Port(1,2,3,4)) 
!S23(Full 4 Port(1,2,3,4)) 
!S24(Full 4 Port(1,2,3,4)) 
!S31(Full 4 Port(1,2,3,4)) 
!S32(Full 4 Port(1,2,3,4)) 
!S33(Full 4 Port(1,2,3,4)) 
!S34(Full 4 Port(1,2,3,4)) 
!S41(Full 4 Port(1,2,3,4)) 
!S42(Full 4 Port(1,2,3,4)) 
!S43(Full 4 Port(1,2,3,4)) 
!S44(Full 4 Port(1,2,3,4)) 
!S4P File: Measurements: <S11,S12,S13,S14>,
!<S21,S22,S23,S24>,
!<S31,S32,S33,S34>,
!<S41,S42,S43,S44>:
# Hz S  dB   R 50
10000000 -3.1271071 -37.932404 -23.169146 43.520142 -39.762863 -171.06296 -48.169704 -177.57484
19.899727 159.88203 -4.4098635 -41.641735 -29.71419 -156.93005 -38.465961 -159.66907
-42.489613 -71.489464 -46.643295 -62.195724 -3.0052106 -38.527664 -23.257553 46.109276
-34.652103 -73.154602 -38.091221 -62.930401 19.957464 160.79227 -4.2990685 -42.293911
20000000 -6.655983 -53.869545 -20.446163 28.024035 -63.917606 55.404564 -66.27961 172.75092
17.908903 157.72049 -8.0854044 -61.11861 -57.36055 62.246548 -65.359573 134.03708
-64.649178 -50.723671 -71.702934 28.653419 -6.5701346 -53.762081 -20.395519 28.29133
-53.501637 57.749283 -61.974842 30.505688 17.937677 157.72491 -7.9870644 -61.063839
30000000 -9.3990889 -59.664989 -19.795774 18.776443 -92.108688 -75.087257 -77.711571 -158.45708
16.812292 159.73779 -11.019758 -70.388023 -54.296349 71.805992 -64.296745 -126.83252
-64.944946 -107.76186 -70.247925 42.269714 -9.3559246 -59.867065 -19.792971 18.68261
-52.565708 66.573639 -76.485214 -15.63216 16.838963 159.60187 -10.993608 -70.888824
40000000 -11.501284 -61.685543 -19.531395 13.560299 -67.422943 29.261192 -70.165611 -179.51654
16.240211 161.83713 -13.438038 -75.801521 -53.764946 69.167542 -74.37133 133.22469
-72.523521 33.751968 -67.016548 135.61197 -11.462546 -61.683434 -19.499201 13.615146
-50.225048 69.294167 -73.595352 92.341621 16.253328 161.76401 -13.421167 -76.015556
50000000 -13.145783 -61.242859 -19.506479 10.243801 -61.931564 151.36652 -59.333321 137.649
15.916411 163.46063 -15.419114 -78.920067 -50.234692 81.301575 -59.758209 137.65215
-63.642269 74.807663 -56.896717 -163.43098 -13.066794 -62.468796 -19.482113 10.413186
-47.524429 65.99192 -64.329926 178.86125 15.938844 163.41612 -15.414598 -79.954796
60000000 -14.31268 -62.572327 -19.306877 8.4418163 -54.791367 49.832222 -57.53693 -6.6989818
15.715769 164.57626 -17.034031 -83.594894 -48.748859 81.237564 -65.460205 57.109283
-73.492172 133.68002 -72.624207 -27.033768 -14.437642 -62.345947 -19.313694 8.0480986
-46.895275 52.248737 -56.09169 71.373802 15.720252 164.47951 -16.984135 -82.471031
70000000 -15.444674 -61.408825 -19.310562 6.03719 -74.11515 106.27396 -79.75457 105.48202
15.585524 165.31535 -18.719702 -85.233574 -47.84306 72.23423 -65.779022 88.807304
-74.750443 47.22998 -73.105072 59.901524 -15.50889 -61.502979 -19.303198 5.9076014
-45.036491 65.846764 -66.322144 73.782303 15.593037 165.31709 -18.576653 -85.781754
80000000 -16.297888 -60.908737 -19.281858 4.6215987 -69.554199 81.744102 -75.010513 1.9304825
15.499921 165.70433 -20.08466 -87.786079 -46.42601 73.340927 -65.076111 70.804794
-64.646423 70.694832 -68.31871 155.47853 -16.387495 -60.740833 -19.289568 4.5325727
-44.828194 71.345535 -70.42778 115.98529 15.505871 165.74608 -19.989382 -88.283981
90000000 -17.028488 -60.522923 -19.27717 3.2664471 -64.585701 100.29227 -73.298813 52.039913
15.440217 165.91544 -21.380674 -90.507492 -45.874809 71.450142 -67.039429 56.511314
-64.588371 60.387821 -68.383293 84.4804 -17.063841 -60.424839 -19.26951 3.2401831
-43.999157 70.016998 -63.930435 88.112228 15.441144 165.97421 -21.233755 -90.713356
100000000 -17.653559 -60.144173 -19.269613 1.9960686 -65.234871 138.52676 -67.107811 99.00351
15.391304 165.95255 -22.638887 -92.873512 -45.372185 73.787979 -64.461739 87.906715
-61.835606 80.721138 -70.085495 148.80237 -17.684465 -60.482304 -19.255489 2.1438143
-42.828426 71.321747 -63.984474 117.94345 15.396427 166.01138 -22.455954 -94.09922
110000000 -18.16872 -60.155613 -19.239559 1.167068 -67.591957 117.55648 -70.971062 26.705084
15.360844 165.84146 -23.887278 -95.727242 -44.674057 71.578033 -63.285343 73.889992
-61.855587 83.12355 -71.804062 120.58916 -18.246197 -59.907536 -19.25449 1.112573
-42.430561 71.116669 -65.657448 80.883484 15.370713 165.90582 -23.629293 -96.730614
120000000 -18.607609 -60.037563 -19.250099 -0.019019293 -70.31337 94.482094 -79.90699 7.9276624
15.331856 165.68556 -25.014183 -98.57869 -43.859905 71.403488 -64.557022 110.65076
-62.124592 112.897 -80.793282 -8.9114218 -18.749468 -60.223534 -19.25053 0.091829188
-41.660652 70.480331 -61.221432 112.3331 15.336746 165.70328 -24.746382 -100.28793
130000000 -18.939362 -59.97094 -19.244932 -0.69422483 -60.226456 146.75851 -62.949257 -114.58624
15.312759 165.46692 -26.197046 -101.32726 -43.585835 70.06163 -65.202553 92.574707
-64.720772 95.484367 -70.612541 174.12846 -19.116362 -60.388393 -19.260921 -0.67823225
-41.398056 68.870697 -63.1017 95.774811 15.311804 165.56129 -25.620794 -104.26385
140000000 -19.33914 -60.478416 -19.24354 -1.4904543 -66.694618 89.500565 -80.608223 -10.08635
15.286486 165.16144 -27.292055 -105.91016 -42.680065 68.767265 -67.926468 60.724739
-64.729866 95.437935 -75.062187 -22.510546 -19.454056 -60.012043 -19.236591 -1.4492992
-40.559082 68.404396 -66.659859 103.87428 15.294108 165.17479 -26.727102 -106.48739
150000000 -19.600204 -60.767052 -19.247068 -2.0624804 -74.785233 77.12542 -74.468758 -45.692577
15.264422 164.80296 -28.440565 -110.23038 -42.041161 69.93866 -64.946465 77.699242
-63.248684 111.68388 -71.837944 88.125641 -19.71295 -60.242222 -19.272861 -2.2740476
-39.848152 67.061462 -60.839424 83.940338 15.270452 164.9157 -27.696484 -110.11609
160000000 -19.866568 -60.770782 -19.262276 -2.7991164 -65.405174 90.248001 -79.486732 134.77249
15.253249 164.44476 -29.493052 -114.3882 -41.541409 70.709518 -65.418503 78.551636
-64.197868 100.85114 -73.882568 21.099707 -20.001717 -60.694332 -19.248646 -2.9712436
-39.586536 66.499756 -67.053818 89.957718 15.252393 164.52132 -28.683273 -115.01076
170000000 -20.110746 -61.099552 -19.244837 -3.3833683 -67.487198 124.63549 -79.194946 -126.40492
15.241058 164.0347 -30.623657 -118.69667 -40.947937 68.826263 -63.434212 109.26884
-63.321747 71.791451 -70.577629 -143.25076 -20.190907 -61.069309 -19.25346 -3.4323211
-38.833008 68.187599 -61.113468 92.143707 15.242269 164.12723 -29.649012 -118.89089
180000000 -20.241287 -61.261772 -19.26203 -4.0880065 -66.223671 115.66718 -73.657486 129.54048
15.229614 163.61656 -31.551558 -122.34697 -40.509495 66.117256 -63.797001 84.852119
-62.771347 91.660088 -75.098846 -112.85088 -20.36017 -61.429752 -19.245174 -4.1419683
-38.33168 66.302353 -62.678612 82.142914 15.229012 163.67911 -30.52075 -122.96144
190000000 -20.399347 -61.740429 -19.231609 -4.5533037 -60.797348 121.62705 -75.572762 -8.7180424
15.221313 163.14801 -32.819782 -128.44156 -40.139355 67.726952 -60.928066 83.634399
-62.889874 103.23656 -85.196396 111.46957 -20.521572 -62.057194 -19.251005 -4.67028
-38.013977 65.77491 -59.028488 78.982582 15.22224 163.22687 -31.615887 -127.88498
200000000 -20.435719 -61.928795 -19.253996 -5.1429396 -64.069664 128.97739 -79.206367 85.854195
15.216593 162.67043 -34.022739 -135.85573 -39.792278 66.696434 -60.285744 86.271057
-59.033966 90.211914 -73.166992 122.21716 -20.638584 -62.437935 -19.276453 -5.338439
-37.408329 66.282677 -57.639832 82.780739 15.21269 162.75629 -32.371922 -132.46118
210000000 -20.636845 -62.632275 -19.247389 -5.7431021 -62.86042 104.6732 -73.58886 165.40472
15.19956 162.18088 -35.029797 -143.55023 -39.270039 65.441086 -60.871109 101.78757
-60.412388 105.24253 -67.171082 43.021946 -20.577572 -62.796623 -19.261723 -6.1037631
-37.217197 63.849442 -59.379871 99.259026 15.216384 162.14964 -33.208748 -136.1691
220000000 -20.670765 -63.039989 -19.254442 -6.2088451 -61.451904 116.97963 -83.963989 -140.4725
15.193483 161.67693 -36.125256 -153.18886 -38.951984 64.599365 -60.271515 95.800941
-59.976421 110.90018 -75.978867 -53.673672 -20.7097 -63.299572 -19.236605 -6.2693105
-36.930012 63.790382 -58.840038 94.614212 15.204226 161.66083 -34.210175 -143.75209
230000000 -20.661755 -63.358646 -19.23287 -6.8924899 -62.357006 100.76684 -73.459732 -21.762894
15.183128 161.14078 -37.3936 -159.90274 -38.589455 64.131943 -60.606026 104.90155
-59.140835 96.197556 -70.528519 66.038239 -20.779882 -63.457199 -19.274029 -6.9954095
-36.577866 63.296558 -59.542152 85.203384 15.193522 161.12067 -35.326622 -151.61682
240000000 -20.709194 -63.986027 -19.248503 -7.3285522 -60.572296 103.59822 -72.968811 142.7751
15.18095 160.60655 -37.96574 -173.4492 -38.186779 64.388145 -60.076157 92.892822
-57.697124 91.900764 -78.106636 -76.59584 -20.799217 -64.102554 -19.268061 -7.550056
-35.954586 63.04348 -58.997856 77.988914 15.189456 160.59259 -36.24028 -156.63855
250000000 -20.727118 -64.581017 -19.248877 -7.9975166 -62.718063 82.984627 -71.425865 -124.45978
15.169673 160.05925 -38.255753 177.8847 -37.671795 61.471798 -60.552937 111.55259
-61.312557 85.089432 -70.820427 -138.39792 -20.790308 -64.984261 -19.290693 -8.0100679
-35.787628 60.473198 -59.314827 103.4785 15.180427 160.04712 -36.800545 -164.37
260000000 -20.82814 -64.607666 -19.230511 -8.2231922 -61.901016 87.464981 -71.08477 -110.98134
15.166743 159.47183 -38.268578 157.9855 -37.370049 62.520676 -61.088108 100.97768
-56.647102 111.26413 -63.917908 -74.367805 -20.801455 -65.318604 -19.284397 -8.5865288
-35.633854 62.242756 -56.483612 94.590363 15.181631 159.46342 -37.753651 -175.66963
270000000 -20.759869 -65.177414 -19.286165 -8.8205948 -59.933842 110.62235 -71.526459 -57.544373
15.165723 158.89226 -38.746319 151.14462 -37.233528 60.333534 -61.360538 93.903442
-57.621246 107.06689 -63.930828 59.107147 -20.818666 -65.516586 -19.277597 -9.2606373
-35.010315 60.883892 -55.646736 88.34079 15.176659 158.9315 -37.973801 174.59109
280000000 -20.830564 -65.588303 -19.287977 -9.4941692 -59.903893 93.952614 -74.729668 -130.55263
15.156384 158.37201 -38.312817 140.88965 -36.751656 61.10437 -57.529819 98.830139
-58.309204 90.322067 -68.074844 109.8806 -20.838293 -65.918365 -19.240747 -9.4151106
-34.818245 60.688622 -56.94133 99.876945 15.166679 158.33253 -38.04137 165.03716
290000000 -20.788357 -66.46756 -19.30781 -9.7397213 -59.133533 96.258163 -72.10955 176.70612
15.153256 157.78857 -37.462063 130.93935 -36.459362 59.267689 -57.472618 94.527725
-57.377346 87.01239 -70.144958 -86.166893 -20.912756 -66.602821 -19.28487 -10.129348
-34.392788 58.724861 -56.894367 89.153427 15.1582 157.78526 -37.760986 150.62253
300000000 -20.767982 -67.313324 -19.279083 -10.287448 -57.833832 107.73305 -71.48893 -113.09508
15.149428 157.19882 -36.492249 121.2262 -36.411442 59.532967 -57.855087 102.79421
-58.716457 90.974861 -67.991768 -50.276531 -20.799047 -67.275391 -19.282089 -10.493059
-34.161774 58.466904 -55.213371 79.767052 15.156263 157.1378 -38.503536 144.30832
310000000 -20.825657 -68.51075 -19.279089 -10.811814 -57.128147 114.73895 -75.835838 -122.89013
15.138656 156.62718 -35.483994 118.13341 -35.996738 58.280441 -57.773926 88.640434
-56.637196 102.39288 -66.797737 25.130283 -20.898476 -67.849876 -19.267412 -11.084134
-34.076405 57.076569 -54.387589 80.024902 15.148661 156.59097 -37.475811 132.30045
320000000 -20.855257 -68.926216 -19.289795 -11.082673 -57.725216 124.77902 -80.018227 -91.352364
15.137101 156.02229 -34.264763 113.55268 -35.811016 55.381542 -57.536289 102.64277
-57.249599 96.36528 -80.632904 137.20947 -20.969566 -68.736145 -19.261473 -11.301997
-33.578575 56.607994 -55.098869 79.636444 15.144477 156.07005 -36.52544 123.97951
330000000 -20.85507 -69.514519 -19.277122 -11.570368 -59.198322 119.51514 -71.022545 -124.79653
15.130095 155.44916 -33.411888 107.80119 -35.550873 56.226536 -58.861866 82.545303
-54.125473 101.12975 -73.087669 162.66266 -20.921379 -69.825745 -19.275917 -11.741942
-33.252384 55.761551 -54.342129 81.321594 15.139273 155.39224 -35.501049 122.57391
340000000 -20.816822 -71.015289 -19.281324 -12.278255 -56.816475 115.94237 -76.154419 151.26955
15.123469 154.85976 -32.771049 106.43798 -35.265163 54.914173 -57.491184 91.391563
-54.641769 105.67275 -65.816055 165.07793 -20.869799 -71.024681 -19.305876 -12.43817
-33.129158 55.723927 -53.715302 92.269844 15.137212 154.82993 -35.004845 119.89204
350000000 -20.848194 -71.553062 -19.304636 -12.52146 -58.038898 135.24734 -68.273415 44.858772
15.119045 154.26707 -31.991348 102.88879 -34.982582 54.578789 -55.1674 87.032356
-53.486538 104.15692 -66.108482 57.739845 -20.939917 -71.362663 -19.302313 -12.770198
-32.745453 54.516396 -54.225037 82.433182 15.134232 154.18353 -33.718197 113.73798
360000000 -20.897707 -72.915733 -19.322365 -13.061517 -55.458191 107.89543 -74.490158 -157.06866
15.112693 153.66032 -31.533716 102.63549 -34.835995 53.162575 -57.648109 98.099838
-54.315544 101.64491 -77.074753 64.288589 -20.991676 -72.670143 -19.286377 -13.377036
-32.677372 52.666603 -55.049305 92.309738 15.125158 153.59335 -33.372768 111.08624
370000000 -20.938536 -73.71563 -19.33411 -13.446202 -57.083546 109.62949 -74.726913 136.8233
15.108573 153.01698 -30.794779 100.46507 -34.520504 53.420685 -57.432941 86.961937
-53.258667 97.691086 -78.551292 55.690315 -21.065117 -73.717995 -19.319893 -13.635068
-32.502407 51.849388 -54.854206 74.37278 15.12227 153.00328 -32.705017 110.4072
380000000 -21.06469 -75.385399 -19.321949 -13.753613 -55.446194 118.73568 -93.368225 166.75563
15.100583 152.41698 -30.076376 99.66552 -34.389977 51.31427 -55.965576 101.29198
-53.994514 102.40548 -82.881966 162.64244 -21.056425 -74.561813 -19.331354 -14.280708
-32.235027 51.419033 -54.539509 81.070648 15.116084 152.38284 -31.971958 107.38689
390000000 -21.120815 -76.29113 -19.327284 -14.301227 -56.13316 109.08344 -77.595657 105.0041
15.096725 151.82645 -29.472885 98.87661 -34.000107 50.326824 -55.806877 93.830841
-52.897205 101.64874 -71.263771 -137.35905 -21.052483 -75.930641 -19.333637 -14.601867
-32.00148 49.839104 -52.826481 78.919456 15.115536 151.76143 -31.628592 104.80656
400000000 -21.141157 -77.836967 -19.325123 -14.856916 -55.781128 107.00124 -67.80513 119.43258
15.090732 151.20799 -28.748369 98.134041 -33.936859 49.656574 -53.523533 101.48442
-53.937294 97.610222 -76.737221 -39.433453 -21.191381 -77.296059 -19.331816 -15.062531
-31.762737 49.798878 -54.363586 84.705925 15.106311 151.17195 -30.602596 103.29703
410000000 -21.127647 -79.043411 -19.345753 -15.133085 -55.884079 107.04272 -73.563683 80.24437
15.090104 150.59352 -28.416285 97.379105 -33.549541 48.282455 -54.419472 97.575897
-52.740013 96.518456 -82.805107 -121.06028 -21.145395 -78.553162 -19.340824 -15.673535
-31.492418 48.383369 -53.355164 90.022522 15.109077 150.52048 -30.345314 103.18164
420000000 -21.200386 -80.627022 -19.34655 -15.844231 -54.874325 110.17431 -65.699196 99.600304
15.084407 149.9826 -27.899271 96.699944 -33.494568 47.888474 -54.082233 86.579491
-53.410851 94.889954 -71.277046 -156.08031 -21.149414 -79.867935 -19.335878 -15.847818
-31.393417 47.779362 -53.385792 87.560593 15.101764 149.89824 -29.697195 102.10059
430000000 -21.227152 -81.606216 -19.367901 -15.926721 -54.980633 114.25529 -74.64994 -57.062946
15.079924 149.3689 -27.402657 95.962448 -33.329479 47.195728 -54.777138 94.178406
-52.643406 107.36333 -90.324104 138.55399 -21.251175 -81.037231 -19.331917 -16.421867
-31.211821 46.621002 -53.058163 89.925476 15.097547 149.27399 -29.089275 101.06683
440000000 -21.209446 -82.891228 -19.328674 -16.465948 -55.55949 111.52874 -72.147141 36.834518
15.077377 148.73987 -27.047544 94.982857 -33.061619 45.539467 -53.171947 97.588112
-52.871284 101.95949 -78.608803 -155.35091 -21.334141 -82.65538 -19.343426 -16.96253
-31.077496 46.206909 -53.10828 83.137939 15.090634 148.6447 -28.688763 101.29087
450000000 -21.223633 -84.509872 -19.335783 -16.93045 -54.025635 118.04436 -69.14077 93.711426
15.072939 148.11284 -26.719681 95.596809 -33.100372 44.698299 -54.229576 100.67902
-51.610008 96.475876 -76.323723 145.06386 -21.368845 -84.334099 -19.349258 -17.402849
-30.892565 44.997776 -52.78532 80.734581 15.087874 148.05344 -28.255543 100.97124
460000000 -21.242603 -85.736992 -19.372215 -17.244677 -53.711025 108.72466 -74.230415 112.0451
15.070004 147.48921 -26.380594 95.37738 -32.875488 44.734905 -54.586731 90.228775
-51.036865 94.26458 -70.685005 76.843193 -21.359121 -85.972183 -19.346346 -17.923191
-30.685057 44.22723 -52.255314 83.655594 15.083851 147.38199 -27.744661 100.64249
470000000 -21.374794 -87.483093 -19.380863 -17.654308 -53.839672 101.31673 -72.348877 88.471565
15.059598 146.84373 -25.99337 95.248802 -32.681633 43.37801 -53.084694 87.421638
-52.843502 101.13367 -69.278992 34.246975 -21.380415 -86.980103 -19.354713 -18.468121
-30.570448 42.968971 -52.781803 74.559937 15.082273 146.79282 -27.47645 99.719414
480000000 -21.332197 -89.055168 -19.392792 -18.172009 -53.417412 110.52818 -76.032555 -136.71811
15.057965 146.22343 -25.755161 95.13694 -32.392597 42.370537 -53.734478 101.3079
-52.10828 95.074936 -69.696274 116.21996 -21.449829 -88.930466 -19.393406 -18.768835
-30.331457 42.548828 -52.091843 80.978783 15.071976 146.13974 -26.977293 99.085823
490000000 -21.370798 -90.529343 -19.391449 -18.665951 -52.951591 107.52781 -67.928741 -72.865547
15.052984 145.58958 -25.35701 95.0271 -32.254871 41.612633 -53.690575 92.467461
-51.682537 94.950974 -77.616608 41.799618 -21.471207 -90.321999 -19.378393 -19.097363
-30.205973 41.257179 -52.230034 80.345688 15.076797 145.51892 -26.730652 98.151047
500000000 -21.405237 -92.277328 -19.384808 -19.137602 -53.377872 116.49023 -74.32119 -91.284973
15.04734 144.97644 -24.935431 93.916718 -32.105331 40.434193 -52.916595 92.910637
-50.085968 100.79229 -71.478195 168.22069 -21.532612 -92.232018 -19.392668 -19.49474
-30.08679 40.548981 -50.964088 82.301567 15.070366 144.87961 -26.282589 97.786026
510000000 -21.353828 -93.690399 -19.376699 -19.606377 -52.831375 106.42271 -68.381981 51.656528
15.042424 144.31183 -24.665894 93.895691 -31.970854 39.397339 -52.207825 99.153839
-52.121792 103.04838 -69.821205 138.19681 -21.519268 -93.456451 -19.382347 -20.132059
-29.966024 39.705948 -51.173645 83.897171 15.060197 144.24927 -26.047768 97.210564
520000000 -21.421904 -95.338028 -19.402626 -20.263163 -53.369324 115.15737 -68.263107 -174.07486
15.040812 143.73383 -24.419273 93.663208 -31.81213 38.347668 -52.255798 94.891235
-49.834461 103.88736 -76.758202 58.14629 -21.567717 -94.496696 -19.404598 -20.31666
-29.796637 38.621799 -50.248154 83.042656 15.057676 143.58318 -25.743919 97.559547
530000000 -21.422153 -96.893082 -19.433647 -20.404993 -52.694115 111.55759 -93.363007 -120.84241
15.033926 143.05463 -24.146759 93.722275 -31.67457 38.396984 -52.836475 91.845306
-49.788597 101.38748 -72.458168 114.66769 -21.539818 -96.958382 -19.388338 -20.822441
-29.622639 38.305752 -52.034199 87.661461 15.054106 142.93846 -25.28933 97.662025
540000000 -21.472162 -98.589943 -19.410843 -20.800884 -51.957668 113.78239 -82.283775 133.28041
15.030393 142.4254 -23.781403 92.9505 -31.57766 37.271 -52.438942 93.499481
-49.795284 93.094849 -72.933846 107.06551 -21.616985 -98.461327 -19.420549 -21.304293
-29.481833 37.320938 -50.899185 81.734734 15.048949 142.35558 -25.042196 96.55278
550000000 -21.466873 -100.09842 -19.403448 -21.203144 -52.402985 106.88775 -74.345467 178.88458
15.024166 141.78465 -23.592981 92.639 -31.405167 36.187946 -51.225506 92.506233
-49.915047 96.368187 -80.245049 23.904982 -21.56077 -99.709633 -19.425896 -21.683277
-29.301514 36.201115 -51.017014 78.486526 15.043741 141.65831 -24.786278 95.973541
