!Mini-Circuits Laboratory
!S-Parameters
!Model: MPGA-105+
!Run / Lot / Date Code: NA / BP384P001-05 / 1348
!Fixture: NA; TB-561+
!AUTO PORT EXTENSION DONE: PORT<1>=113.35ps; PORT<2>=112.76ps; PORT<3>=112.16ps; PORT<4>=112.11ps
!Network Analyzer: PNA-X N5242A - 423 4 ports;  Serial number: 71256
!Date: 2/15/2014
!S/N: Unit# 1
!Correction: S11(Full 4 Port(1,2,3,4)) 
!S12(Full 4 Port(1,2,3,4)) 
!S13(Full 4 Port(1,2,3,4)) 
!S14(Full 4 Port(1,2,3,4)) 
!S21(Full 4 Port(1,2,3,4)) 
!S22(Full 4 Port(1,2,3,4)) 
!S23(Full 4 Port(1,2,3,4)) 
!S24(Full 4 Port(1,2,3,4)) 
!S31(Full 4 Port(1,2,3,4)) 
!S32(Full 4 Port(1,2,3,4)) 
!S33(Full 4 Port(1,2,3,4)) 
!S34(Full 4 Port(1,2,3,4)) 
!S41(Full 4 Port(1,2,3,4)) 
!S42(Full 4 Port(1,2,3,4)) 
!S43(Full 4 Port(1,2,3,4)) 
!S44(Full 4 Port(1,2,3,4)) 
!S4P File: Measurements: <S11,S12,S13,S14>,
!<S21,S22,S23,S24>,
!<S31,S32,S33,S34>,
!<S41,S42,S43,S44>:
# Hz S  dB   R 50
10000000 -3.0541508 -38.152622 -22.256893 47.110802 -47.075462 -141.93991 -47.326843 -158.13947
19.993773 158.95152 -4.3687768 -41.207382 -40.219284 -162.36404 -38.995399 -155.87598
-44.768543 65.599762 -47.731232 21.225428 -2.8611977 -39.059875 -22.841545 49.629326
-36.114452 71.108185 -39.292599 23.360327 20.043907 159.9767 -4.1859593 -43.302853
20000000 -6.3903279 -58.111065 -20.09337 29.043858 -59.571045 -161.21713 -61.174915 -154.50716
17.897772 155.83716 -7.6911983 -65.255875 -54.276978 71.935143 -58.455521 141.16725
-67.886482 -160.05153 -67.912331 149.6667 -6.2948079 -58.062885 -20.049856 29.357342
-54.085186 80.379562 -68.898422 129.66869 17.929247 155.84537 -7.616991 -64.932457
30000000 -9.1589785 -66.807434 -19.375834 19.79211 -63.469757 55.574966 -67.422195 -141.12567
16.656031 157.5036 -10.520788 -77.431732 -52.731777 56.177685 -69.437637 108.6224
-62.458458 -130.12563 -71.423683 97.838005 -9.1541147 -66.907516 -19.412304 20.189495
-56.04184 62.237865 -66.22155 106.14355 16.682596 157.34831 -10.504045 -77.726044
40000000 -11.367669 -71.357742 -19.110886 14.243359 -63.27636 55.770222 -68.535461 157.49008
15.976166 159.65991 -12.809238 -85.586281 -52.455067 66.699226 -69.853958 13.478077
-70.933365 129.27228 -62.034473 -7.9755974 -11.36037 -71.430534 -19.141066 14.306081
-51.270931 70.60099 -66.467125 78.923164 15.989062 159.5777 -12.795825 -85.891403
50000000 -13.188186 -73.364159 -18.951704 10.463007 -58.306252 -36.047001 -58.698639 109.65585
15.581848 161.47281 -14.659179 -91.116219 -50.544907 55.089626 -59.53241 115.16076
-56.074036 113.30981 -60.229786 -43.557964 -13.026384 -74.156311 -19.02784 11.166451
-48.072598 73.137016 -70.843208 -85.987701 15.602881 161.40245 -14.626105 -92.384766
60000000 -14.437493 -76.342415 -19.049236 8.1561699 -59.522457 -155.8235 -55.334644 -14.143044
15.333329 162.78883 -16.065372 -98.012451 -49.662971 64.875244 -67.817108 96.104019
-67.107521 137.04881 -68.924446 -23.150875 -14.57124 -76.482132 -18.922581 8.2417831
-47.411682 51.187958 -57.532524 158.66539 15.340353 162.67438 -16.057053 -97.472961
70000000 -15.77919 -76.714912 -18.896265 6.2750239 -67.383263 147.2946 -71.706276 -107.31132
15.17305 163.71527 -17.561697 -102.34383 -48.330109 76.504471 -72.665749 48.72216
-68.360374 -176.25217 -69.742157 165.04869 -15.81121 -77.219551 -18.88686 6.2822294
-46.34901 71.356873 -65.712379 153.19612 15.181029 163.69933 -17.426153 -102.97852
80000000 -16.793753 -77.48835 -18.868717 4.6009212 -69.60585 111.52328 -68.736107 22.957434
15.06534 164.26346 -18.730659 -107.11151 -47.964279 67.056595 -65.246094 90.816231
-64.410477 85.102669 -86.158966 146.76701 -16.886774 -77.716736 -18.85743 4.5758076
-45.234806 66.8162 -66.849869 82.675522 15.071922 164.28726 -18.61536 -107.37347
90000000 -17.666374 -78.011063 -18.856243 3.1194224 -74.934853 125.12334 -69.940659 -19.173384
14.990897 164.60658 -19.73716 -111.43415 -46.644196 71.367134 -70.563034 70.753609
-63.802086 72.641785 -80.518501 -179.22281 -17.716251 -78.265877 -18.833033 3.2805524
-44.335503 66.883522 -63.82077 107.32494 14.991559 164.65727 -19.619423 -111.51517
100000000 -18.475174 -78.452713 -18.821888 1.788413 -68.11718 86.250854 -71.390709 35.685566
14.929892 164.76712 -20.735449 -115.69054 -45.73476 67.609062 -63.811344 79.755585
-62.558456 103.79775 -72.461937 -67.172226 -18.475235 -78.821465 -18.832664 2.2053246
-43.240887 70.382057 -65.971298 111.41306 14.935783 164.80792 -20.550869 -116.31042
110000000 -19.15918 -79.076584 -18.808273 0.89199173 -76.069923 118.00732 -69.73056 132.49513
14.892696 164.74777 -21.62081 -120.36913 -44.714401 70.715355 -67.007889 108.2087
-63.077099 81.278587 -68.012932 -77.028702 -19.212267 -78.857468 -18.817749 1.0828526
-42.932007 71.26992 -66.693481 99.829285 14.900953 164.80574 -21.42672 -120.67371
120000000 -19.742794 -79.3255 -18.806887 -0.0085732304 -74.296722 80.618034 -70.117943 -7.1351562
14.858593 164.6853 -22.434196 -124.47744 -44.110912 69.145874 -66.168648 93.156158
-61.648125 95.338852 -66.274338 9.7043238 -19.897837 -79.814049 -18.828299 0.00013206166
-41.906097 68.14196 -63.141167 119.64023 14.86113 164.69292 -22.146662 -125.39378
130000000 -20.368256 -79.744774 -18.746735 -1.0366628 -62.273277 47.372051 -60.964672 -75.813202
14.836279 164.54816 -23.224274 -128.73575 -43.615013 69.77462 -65.074646 106.47025
-66.944519 102.73865 -77.44207 155.28133 -20.41605 -80.464958 -18.798983 -0.86620682
-41.313747 70.33107 -62.729595 67.654251 14.829937 164.62082 -22.745104 -129.61342
140000000 -20.806101 -80.177101 -18.816425 -1.7273917 -64.35894 118.34803 -78.64624 -123.36447
14.804907 164.293 -23.805019 -134.35242 -42.901337 70.029945 -68.201668 109.06316
-66.367432 102.26167 -81.054146 106.83347 -20.944408 -80.265038 -18.825813 -1.5774381
-41.151009 67.649094 -62.963779 69.267792 14.81155 164.30231 -23.411612 -133.78952
150000000 -21.242727 -80.637558 -18.804993 -2.2616806 -69.550423 76.47963 -79.003845 -107.98476
14.781075 163.9982 -24.352297 -139.54457 -42.479641 70.021004 -71.711433 92.526657
-59.801735 105.7699 -66.073486 121.35365 -21.375809 -80.569687 -18.809958 -2.3760848
-40.268486 67.703011 -60.983276 91.547325 14.785989 164.10727 -23.943399 -138.12369
160000000 -21.661545 -80.63166 -18.790285 -3.1495724 -65.389229 79.466675 -81.840652 145.0788
14.768062 163.69293 -24.88924 -143.83478 -41.630093 67.414719 -64.689034 97.231781
-64.494499 95.867958 -83.651337 35.815392 -21.785334 -81.315887 -18.838957 -3.3020916
-40.060577 68.90831 -58.631008 67.605789 14.764767 163.76483 -24.382177 -142.86017
170000000 -22.066385 -81.475578 -18.816004 -3.7291715 -66.693459 124.0467 -71.263069 -99.222031
14.754684 163.32968 -25.304079 -149.57524 -41.540192 66.628525 -60.83865 97.871544
-60.03413 99.390709 -71.468391 37.321697 -22.157545 -81.726341 -18.801958 -3.9799392
-39.1917 67.716255 -59.345581 92.388428 14.754686 163.42531 -24.839989 -147.11162
180000000 -22.345287 -81.519897 -18.807114 -4.5305319 -66.23719 93.971184 -73.0056 -116.44495
14.741079 162.94263 -25.648264 -153.35101 -40.873741 66.866318 -64.166031 95.967209
-61.734375 85.169556 -76.252396 -27.619095 -22.499842 -82.162071 -18.803068 -4.5547204
-38.980747 66.830147 -59.564034 80.781067 14.740896 163.02242 -25.149977 -151.47032
190000000 -22.665127 -82.42691 -18.810986 -5.0550113 -64.723099 104.89117 -80.992882 -14.715833
14.731891 162.51436 -26.000006 -158.70518 -40.444027 65.227669 -61.649822 94.225624
-59.838783 94.344925 -97.81076 -67.573257 -22.810705 -83.032211 -18.81255 -5.2097497
-38.414787 65.845596 -57.208347 88.415359 14.732335 162.59036 -25.431068 -155.80136
200000000 -22.917276 -82.475563 -18.831314 -5.9092999 -65.597183 106.0709 -76.289063 27.783789
14.728977 162.0703 -26.253311 -163.91324 -39.756439 64.65065 -61.58646 84.833771
-58.224415 83.165703 -74.462311 149.21686 -23.083515 -83.857246 -18.795353 -5.8069353
-37.770168 63.966007 -59.014446 80.586861 14.721782 162.16621 -25.673271 -160.16954
210000000 -23.237043 -84.13961 -18.808933 -6.4637823 -62.551697 111.90974 -74.847519 -51.043327
14.712276 161.61433 -26.370049 -169.14949 -39.743847 67.037384 -61.002758 83.015244
-59.386387 98.006386 -78.723167 170.90588 -23.195658 -84.275307 -18.8109 -6.478744
-37.513863 64.933418 -58.351395 72.65377 14.728459 161.5699 -25.853178 -163.99597
220000000 -23.458817 -84.754715 -18.815863 -7.0914035 -60.884411 89.078995 -75.146294 -91.879463
14.703425 161.12909 -26.419436 -173.80019 -39.302662 64.744576 -58.816708 96.488564
-60.482273 95.00415 -75.066139 158.12389 -23.495937 -84.928177 -18.808943 -7.0975962
-37.254864 63.667492 -58.276737 98.471092 14.715361 161.1315 -25.98336 -168.89784
230000000 -23.621662 -85.422897 -18.833776 -7.5761452 -58.979866 102.80408 -71.172142 -38.4716
14.695222 160.62164 -26.537169 -178.29019 -38.759033 64.49337 -58.573078 87.695061
-57.54855 91.695724 -70.968369 -18.685057 -23.736216 -85.468384 -18.826912 -7.6409626
-36.821316 63.48381 -56.586765 85.22654 14.704948 160.60686 -26.101358 -173.40466
240000000 -23.793804 -86.196175 -18.82765 -7.9983172 -61.889999 96.195885 -77.261444 -50.826939
14.691965 160.10059 -26.490582 177.54309 -38.443516 62.762131 -58.004471 84.505577
-57.913898 98.57679 -74.691902 -47.802624 -23.887159 -86.763512 -18.807411 -8.3457317
-36.400578 61.465645 -58.236069 83.126343 14.701491 160.09117 -26.143084 -176.89516
250000000 -23.902401 -87.73735 -18.81039 -8.6716099 -61.986954 111.67207 -70.229523 174.09473
14.681122 159.5817 -26.396202 173.93008 -38.166954 62.145844 -59.192654 95.248856
-58.881466 86.252434 -88.02874 -120.75596 -24.023191 -88.073631 -18.843697 -8.9058571
-36.214428 60.384018 -58.775822 79.44516 14.693018 159.56622 -26.052534 179.32478
260000000 -24.220242 -87.649681 -18.791719 -9.1233015 -57.695625 117.68956 -68.241539 -131.73788
14.680615 159.01291 -26.336945 168.46675 -37.615082 61.523346 -57.867424 93.144585
-59.070866 87.045494 -79.718491 75.956802 -24.175533 -88.660286 -18.839512 -9.2763824
-36.074852 62.418743 -58.507278 73.432327 14.693218 159.00345 -26.113815 175.70319
270000000 -24.27973 -88.6203 -18.835821 -9.5788918 -58.786858 104.30736 -84.049637 -35.59967
14.680304 158.43629 -26.241407 166.46916 -37.470596 59.599339 -60.42329 102.16758
-55.160328 85.524246 -70.224266 60.115971 -24.341753 -89.28997 -18.847084 -9.9289923
-35.464043 59.136223 -55.648609 87.276192 14.689516 158.49319 -25.931868 171.38992
280000000 -24.443295 -90.415413 -18.854343 -10.337419 -59.010574 111.62965 -72.459114 52.146545
14.672162 157.9301 -26.130383 162.35912 -37.259956 60.180004 -56.39695 62.233486
-56.797081 104.90271 -70.951302 121.99808 -24.538652 -90.57753 -18.79464 -10.455308
-35.153671 58.687542 -54.488487 76.430687 14.680451 157.8938 -26.037983 169.53148
290000000 -24.606829 -91.267929 -18.82543 -10.740887 -57.860382 101.68761 -76.968445 70.648994
14.666842 157.34947 -26.005632 159.74165 -36.968555 60.862766 -56.306511 82.839264
-58.368378 104.31728 -69.985909 164.26736 -24.748226 -92.048782 -18.817749 -10.942426
-34.951962 57.97998 -56.335407 88.745834 14.67578 157.36581 -25.748945 164.64415
300000000 -24.60018 -92.44799 -18.8475 -11.290634 -62.386398 83.175102 -76.09507 -133.9485
14.664326 156.77948 -25.649317 156.36108 -36.56638 57.685246 -58.495674 92.258415
-55.666279 96.687668 -79.111191 130.58621 -24.713699 -92.245216 -18.844608 -11.580649
-34.563236 56.616791 -58.216274 87.872711 14.673532 156.72548 -25.797945 162.50873
310000000 -24.724976 -94.402687 -18.851421 -11.967259 -58.865078 100.83386 -76.130135 96.636513
14.654606 156.22319 -25.51445 153.30716 -36.279659 57.432022 -56.358368 95.474617
-55.060211 96.940323 -67.727158 127.54128 -24.867943 -93.910019 -18.847618 -12.035573
-34.249615 56.78125 -55.125164 98.275238 14.665543 156.19608 -25.682022 158.95374
320000000 -24.828171 -95.868042 -18.854935 -12.363732 -57.105804 90.917778 -71.837227 70.790756
14.653643 155.6371 -25.330336 150.4583 -36.106445 56.670891 -56.209415 106.76273
-55.06646 94.074738 -69.518311 -53.872208 -25.114216 -95.17952 -18.825062 -12.650173
-34.097095 56.681091 -55.033432 88.841072 14.662058 155.68437 -25.516417 155.93451
330000000 -24.973803 -96.596069 -18.855665 -12.714005 -56.577946 102.94202 -68.664711 99.808723
14.648944 155.07936 -25.125772 147.52118 -35.798134 54.98568 -56.270676 106.0641
-54.852806 93.243484 -71.150734 95.286163 -25.154173 -96.863548 -18.840326 -13.07974
-33.854485 55.204647 -54.193527 103.3668 14.658472 155.0116 -25.171913 154.10973
340000000 -24.939674 -98.391785 -18.854433 -13.402796 -58.277008 109.42406 -74.821526 111.05956
14.643143 154.47894 -24.895519 145.6058 -35.550999 54.955685 -55.280773 83.182785
-55.036022 98.861504 -67.684486 123.35175 -25.01898 -98.300743 -18.844448 -13.710707
-33.510818 54.894855 -54.017487 81.873665 14.656968 154.47025 -25.00214 152.07988
350000000 -25.1066 -99.31295 -18.872845 -13.962181 -57.072369 111.4062 -70.214912 10.245644
14.638345 153.89102 -24.649973 143.05562 -35.326405 54.354729 -54.619602 81.378853
-54.914116 95.454491 -65.797066 166.64232 -25.177002 -99.610306 -18.872015 -14.18819
-33.430775 53.682228 -53.216152 94.504005 14.653919 153.8367 -24.753275 149.32286
360000000 -25.075127 -101.27927 -18.87599 -14.441974 -56.251884 119.23782 -80.981705 -18.451885
14.634244 153.30408 -24.421499 141.61926 -35.137264 52.849262 -57.980549 101.60425
-54.765354 105.97423 -69.966827 69.09391 -25.193743 -101.95303 -18.893383 -14.592061
-33.105713 53.248814 -55.026424 75.97464 14.646565 153.25128 -24.646202 147.17418
370000000 -25.242325 -102.49538 -18.864977 -14.92516 -55.434231 105.9628 -68.112778 168.69604
14.631312 152.66934 -24.168089 139.33641 -34.857262 52.624855 -56.885731 87.894211
-54.260937 96.700859 -79.30336 108.787 -25.384043 -103.72552 -18.893141 -15.291903
-32.771366 52.049828 -52.905148 82.782585 14.644309 152.67215 -24.341461 144.87369
380000000 -25.365585 -104.72147 -18.877241 -15.30078 -57.929214 108.10755 -70.589935 120.25233
14.624346 152.0778 -23.913149 137.49492 -34.758732 51.568451 -53.430576 82.967682
-53.655022 92.108047 -66.363983 -88.37973 -25.459049 -104.64121 -18.864025 -15.537075
-32.672043 51.402512 -53.853306 74.564644 14.640443 152.05693 -24.172445 142.69983
390000000 -25.436117 -106.51505 -18.89571 -15.839528 -57.720665 107.86453 -83.929337 -139.99173
14.621628 151.48163 -23.673809 135.62192 -34.558331 50.078758 -54.304623 102.6571
-53.802547 92.770508 -77.09272 -103.34135 -25.39851 -105.80255 -18.884447 -16.226738
-32.417595 49.483715 -54.425076 76.836395 14.642902 151.43851 -24.102924 141.61896
400000000 -25.381311 -108.69826 -18.868294 -16.401604 -55.742802 106.05804 -68.028893 72.462746
14.615264 150.88281 -23.370296 133.58844 -34.366028 48.764603 -53.516106 93.922432
-54.600586 111.67098 -82.210548 160.02142 -25.536465 -108.40491 -18.881155 -16.612041
-32.330349 49.230999 -53.841534 92.874977 14.632464 150.8623 -23.751045 139.28979
410000000 -25.48015 -109.85574 -18.882698 -16.806524 -54.701015 105.0012 -74.279808 -102.19619
14.617092 150.25485 -23.201509 132.36229 -34.050472 48.36882 -54.078106 91.731644
-53.160328 111.40527 -75.243362 64.142654 -25.418396 -109.56252 -18.88339 -17.080404
-32.170185 48.044941 -52.872414 86.196129 14.637964 150.22461 -23.625956 137.82747
420000000 -25.377659 -111.96236 -18.890646 -17.241922 -55.175346 104.13986 -70.407715 103.08975
14.612386 149.66086 -22.943373 130.7881 -33.780682 47.083454 -53.816582 101.73972
-51.26582 94.560303 -72.408615 136.47887 -25.479965 -111.33937 -18.893394 -17.646603
-31.783537 48.302628 -51.562992 84.340759 14.630603 149.58385 -23.435951 136.51143
430000000 -25.491783 -113.04052 -18.915733 -17.742596 -56.396168 110.83397 -70.014748 131.94743
14.609836 149.05463 -22.741169 128.93925 -33.733082 46.57576 -54.017002 90.210564
-52.076111 93.614128 -74.041092 -71.253151 -25.560715 -112.8869 -18.887171 -18.008373
-31.634598 46.9669 -53.728504 82.527855 14.627782 148.98964 -23.205866 134.89035
440000000 -25.437294 -114.57281 -18.934303 -18.356869 -54.631432 113.3268 -71.930695 -93.00486
14.609106 148.43732 -22.561192 127.90189 -33.557457 45.609287 -53.972725 94.343414
-51.643799 89.89402 -76.005852 130.54143 -25.600979 -115.13127 -18.92095 -18.650238
-31.396032 45.614422 -52.116379 83.633713 14.622863 148.34511 -23.01391 133.76541
450000000 -25.381836 -116.61945 -18.931702 -18.722679 -54.056877 94.43222 -73.459427 135.57106
14.605922 147.80513 -22.390179 127.09227 -33.225067 44.275795 -53.895344 89.688133
-51.220818 98.985916 -70.244553 85.91053 -25.618805 -117.3169 -18.922611 -19.113398
-31.32259 44.936291 -51.845749 80.795685 14.619576 147.76421 -22.779259 132.41006
460000000 -25.393513 -118.09431 -18.913481 -19.216253 -53.388958 101.82646 -76.988892 74.80201
14.603824 147.17621 -22.172863 125.81654 -33.175747 44.009731 -54.323551 90.069641
-52.812294 90.716888 -73.300339 50.301502 -25.596266 -119.22079 -18.910973 -19.496395
-31.087645 44.006287 -51.934734 84.741478 14.618033 147.11552 -22.566467 131.02026
470000000 -25.468769 -120.50294 -18.94809 -19.744057 -54.399609 105.20209 -76.405365 78.816597
14.597439 146.55971 -21.969683 124.6714 -32.959148 42.897522 -52.027153 88.600212
-51.05497 94.064827 -63.954842 79.962723 -25.56324 -120.05465 -18.964392 -20.003229
-30.909578 43.325577 -50.845852 79.686592 14.617471 146.53282 -22.414854 129.98813
480000000 -25.432219 -122.20673 -18.949858 -20.064669 -52.920044 99.080505 -67.691826 141.06874
14.597514 145.91528 -21.809103 123.90956 -32.89455 42.165001 -52.299221 95.234337
-51.003239 90.732193 -69.72789 112.03145 -25.575478 -122.47909 -18.944016 -20.408997
-30.754047 42.150497 -51.025093 83.184311 14.608805 145.87848 -22.232817 128.37099
490000000 -25.352385 -124.0881 -18.939592 -20.714926 -53.057178 104.76148 -71.823212 101.28917
14.592509 145.28986 -21.536205 122.46098 -32.63958 41.697151 -51.0298 89.991158
-51.779125 95.926796 -71.526024 158.99002 -25.631779 -123.91731 -18.932234 -21.036289
-30.608921 41.435318 -50.974987 78.332062 14.615326 145.26642 -22.08983 127.33698
500000000 -25.359911 -125.73619 -18.969818 -21.041536 -52.619137 109.19959 -75.567535 131.25648
14.590539 144.67561 -21.366579 121.09418 -32.556992 40.381809 -51.643822 93.364815
-51.060562 88.940331 -72.810364 43.344135 -25.628885 -126.17924 -18.97761 -21.358322
-30.456591 40.871204 -50.895847 85.279663 14.610696 144.61272 -21.865002 125.96668
510000000 -25.284172 -127.03734 -18.933886 -21.657499 -53.475124 101.81889 -73.414444 -43.080956
14.589218 144.01793 -21.178806 120.06228 -32.298958 39.753723 -52.206295 85.212349
-50.550159 94.992317 -72.800415 -109.44684 -25.543108 -127.51995 -18.951374 -21.948805
-30.218035 39.265755 -51.47263 81.536713 14.604419 144.00037 -21.699032 124.99894
520000000 -25.243858 -129.46989 -18.972443 -22.183664 -52.464588 105.58789 -71.106018 129.40799
14.587472 143.44469 -21.005892 119.25384 -32.161083 38.936958 -51.724308 86.792282
-50.113262 86.11087 -81.419556 77.403816 -25.580536 -129.1252 -18.962406 -22.397564
-30.086189 38.94865 -50.900852 84.446251 14.603369 143.34436 -21.582569 124.17767
530000000 -25.12501 -131.04686 -18.99225 -22.697823 -52.17115 107.57406 -67.08728 119.31973
14.580694 142.76456 -20.799114 118.21145 -31.956911 38.396484 -51.559875 94.544472
-51.230663 96.357376 -88.857819 -156.24763 -25.394779 -131.10266 -18.970442 -22.930397
-29.971491 37.536499 -50.164211 76.583084 14.600528 142.7001 -21.359241 123.15678
540000000 -25.177097 -132.45529 -18.958448 -23.161276 -52.821617 94.473373 -73.501678 63.618835
14.581386 142.14325 -20.623913 117.17055 -31.859846 37.059116 -52.902161 93.394615
-50.291855 97.609825 -69.727081 135.32297 -25.487627 -133.25049 -18.998039 -23.393343
-29.863432 37.448536 -50.004517 83.242218 14.597863 142.11232 -21.146154 121.96806
550000000 -25.176077 -134.97931 -18.977079 -23.588831 -51.706799 104.70503 -63.731495 108.57806
14.574617 141.50037 -20.456419 116.24997 -31.736767 36.056808 -51.363857 89.444534
-49.777992 95.112335 -77.206665 126.74882 -25.467903 -134.95523 -18.986481 -23.706539
-29.678499 36.52013 -50.905773 75.234383 14.595722 141.42584 -20.992392 120.97665
