!Mini-Circuits Laboratory
!S-Parameters
!Model: MPGA-105+
!Run / Lot / Date Code: NA / BP384P001-05 / 1348
!Fixture: NA; TB-561+
!AUTO PORT EXTENSION DONE: PORT<1>=113.35ps; PORT<2>=112.76ps; PORT<3>=112.16ps; PORT<4>=112.11ps
!Network Analyzer: PNA-X N5242A - 423 4 ports;  Serial number: 71256
!Date: 2/15/2014
!S/N: Unit# 1
!Correction: S11(Full 4 Port(1,2,3,4)) 
!S12(Full 4 Port(1,2,3,4)) 
!S13(Full 4 Port(1,2,3,4)) 
!S14(Full 4 Port(1,2,3,4)) 
!S21(Full 4 Port(1,2,3,4)) 
!S22(Full 4 Port(1,2,3,4)) 
!S23(Full 4 Port(1,2,3,4)) 
!S24(Full 4 Port(1,2,3,4)) 
!S31(Full 4 Port(1,2,3,4)) 
!S32(Full 4 Port(1,2,3,4)) 
!S33(Full 4 Port(1,2,3,4)) 
!S34(Full 4 Port(1,2,3,4)) 
!S41(Full 4 Port(1,2,3,4)) 
!S42(Full 4 Port(1,2,3,4)) 
!S43(Full 4 Port(1,2,3,4)) 
!S44(Full 4 Port(1,2,3,4)) 
!S4P File: Measurements: <S11,S12,S13,S14>,
!<S21,S22,S23,S24>,
!<S31,S32,S33,S34>,
!<S41,S42,S43,S44>:
# Hz S  dB   R 50
10000000 -3.1840172 -37.42477 -23.180172 48.57843 -43.262585 -137.30045 -49.650173 -177.23888
19.885092 159.83104 -4.6513677 -41.817493 -35.591568 -135.78603 -41.083786 -176.23613
-48.5107 -168.70981 -49.095577 171.35986 -3.0043924 -37.888992 -22.871405 48.318024
-38.348526 -168.82643 -39.245049 175.90842 19.927126 160.7545 -4.3616605 -41.777794
20000000 -6.6031723 -53.790268 -20.352484 28.272171 -67.065865 -92.401085 -71.211723 -107.15015
17.884073 157.71295 -8.0702543 -61.175804 -65.484894 106.06642 -66.507263 -92.844719
-64.138351 -20.012335 -61.234829 87.428368 -6.5489264 -53.628925 -20.302008 28.042841
-61.646271 -17.953444 -54.737198 40.087734 17.912767 157.71404 -8.0066299 -61.015686
30000000 -9.36724 -59.475323 -19.704998 18.967987 -81.733414 105.53565 -63.929024 142.8163
16.784275 159.71051 -11.024266 -70.529739 -55.994118 71.003372 -66.447662 78.43251
-64.552414 -24.477379 -82.886284 134.41232 -9.3353758 -59.816128 -19.769991 19.238207
-53.429268 61.724945 -74.288223 -10.107423 16.812239 159.55768 -10.988547 -71.004601
40000000 -11.465314 -61.523018 -19.488728 13.846479 -77.698257 35.910347 -71.006653 -175.1246
16.210981 161.81288 -13.444106 -76.040398 -52.578739 72.836861 -67.298149 78.214066
-75.562027 98.271317 -67.458473 -82.100212 -11.438793 -61.698883 -19.513975 13.806095
-50.694202 67.304756 -67.240242 116.96847 16.224787 161.73428 -13.422046 -76.116867
50000000 -13.021433 -61.334801 -19.37266 10.998957 -56.419807 -131.89931 -57.510052 81.509163
15.884963 163.44231 -15.468427 -79.110031 -54.0382 67.531418 -56.305172 107.52325
-60.71344 -51.833778 -62.599625 117.87643 -13.019288 -62.470051 -19.363945 10.659948
-49.323502 57.400642 -60.131371 97.200668 15.906974 163.38377 -15.384753 -80.232277
60000000 -14.35234 -63.283772 -19.202456 7.1670079 -54.915565 111.65543 -56.493183 -29.348022
15.682329 164.56764 -17.026344 -83.613708 -50.084278 78.367561 -64.3283 86.538597
-69.878494 133.41492 -75.642876 -34.632557 -14.403193 -62.256416 -19.314447 8.2400436
-46.83567 85.766899 -58.247375 -7.1007318 15.690695 164.46512 -16.956152 -83.268852
70000000 -15.428291 -61.479816 -19.298149 5.8548603 -73.833504 14.575958 -80.04567 68.532852
15.553921 165.29247 -18.673817 -85.469139 -48.031425 68.903122 -71.639557 84.623062
-67.422264 67.252991 -82.493362 63.604519 -15.464183 -61.651684 -19.28632 5.9895949
-46.367271 70.085182 -68.520386 123.80927 15.559628 165.3013 -18.519188 -86.137321
80000000 -16.280449 -61.008186 -19.265783 4.3914523 -66.651772 147.76108 -80.125824 30.889641
15.466896 165.68922 -20.042763 -88.277779 -47.563717 75.032021 -66.709717 50.848907
-67.391869 125.27979 -70.826286 -58.392921 -16.363293 -60.769314 -19.272282 4.3894567
-44.809849 72.543785 -61.797688 85.163246 15.474445 165.72954 -19.929157 -88.815567
90000000 -16.988352 -60.649197 -19.214342 3.1030827 -71.205177 126.88239 -69.774185 42.142864
15.407959 165.90192 -21.305996 -90.904602 -46.277275 72.736298 -66.762344 57.945557
-73.525017 145.25075 -71.632896 -46.722923 -17.051592 -60.57029 -19.241386 3.0464838
-44.433651 72.46936 -68.769241 60.795967 15.408969 165.9637 -21.12163 -91.395462
100000000 -17.605623 -60.152481 -19.22934 2.1050441 -68.005684 -171.9216 -75.383087 92.825752
15.357688 165.94217 -22.568703 -93.262177 -45.61137 74.015846 -63.870308 87.474426
-75.059303 81.523178 -73.891129 154.35551 -17.650326 -60.449203 -19.237879 2.1702986
-43.641499 71.407982 -62.439045 82.796989 15.364767 166.00362 -22.333714 -94.682953
110000000 -18.138016 -60.328083 -19.228331 1.0995883 -69.390991 118.6543 -75.43351 120.08687
15.326983 165.8243 -23.788883 -96.60984 -44.664337 73.534935 -67.363884 89.817886
-68.834656 47.893345 -77.005669 144.0799 -18.205856 -59.885445 -19.239697 1.2508054
-42.659874 71.623421 -62.33707 68.453369 15.338007 165.89825 -23.530285 -97.483864
120000000 -18.589321 -60.250198 -19.233232 0.077862769 -66.534851 155.91502 -75.95829 19.267584
15.298297 165.67921 -24.904114 -99.377991 -43.88382 70.275764 -67.000404 95.959358
-65.020088 113.88617 -70.289337 66.135048 -18.719398 -60.24332 -19.223097 0.3353613
-41.890419 70.167358 -61.648186 65.201912 15.303033 165.69595 -24.558826 -101.37387
130000000 -18.940828 -60.494766 -19.25279 -0.28593966 -64.648102 138.43724 -69.583557 6.4128432
15.278612 165.47432 -26.051094 -102.47556 -43.528244 70.434166 -64.519043 93.627937
-64.110733 62.700207 -75.216331 -27.721354 -19.108698 -60.559319 -19.252144 -0.61338741
-41.459305 71.384415 -61.788593 105.31826 15.277876 165.55716 -25.510468 -104.78238
140000000 -19.350904 -60.449539 -19.238964 -1.3971328 -66.157722 91.59967 -84.780251 35.845985
15.253699 165.14888 -27.10004 -107.23251 -42.568512 70.348358 -65.312996 111.48091
-61.015915 95.119522 -80.761185 111.98056 -19.447369 -59.945061 -19.228968 -1.3547657
-40.603851 69.283669 -62.542694 109.45045 15.259345 165.17665 -26.56661 -108.08141
150000000 -19.601446 -60.78307 -19.242542 -2.2158041 -61.979061 100.10385 -76.784973 -20.828644
15.233142 164.79518 -28.181446 -111.13818 -41.975895 71.36203 -64.558304 114.50258
-60.961651 83.830734 -75.567322 -73.99263 -19.725 -60.153893 -19.21277 -2.019588
-40.006897 69.240761 -63.425869 55.945286 15.237567 164.92435 -27.353029 -111.53477
160000000 -19.842442 -60.770489 -19.224731 -2.7972448 -70.431976 96.567726 -75.351059 -6.0725913
15.218098 164.44682 -29.188829 -114.78329 -41.381706 71.55114 -61.350372 109.78555
-63.270676 107.9799 -66.939827 -120.24525 -19.968445 -60.955757 -19.224943 -2.8426991
-39.340015 67.3619 -61.269363 81.165482 15.218456 164.52411 -28.402855 -116.00449
170000000 -20.103868 -61.259293 -19.247797 -3.4296451 -65.636505 125.58192 -77.129333 -127.37979
15.206793 164.02847 -30.28208 -119.85997 -40.872841 69.82225 -64.999908 96.913689
-60.372921 102.41978 -76.397598 127.12822 -20.15831 -60.916683 -19.217258 -3.3632028
-39.026844 67.844505 -60.488255 100.08894 15.209388 164.13654 -29.291924 -119.22066
180000000 -20.202101 -61.183949 -19.225481 -4.0397248 -63.521393 93.757935 -79.322159 -92.240555
15.195645 163.62582 -31.200739 -123.98946 -40.390636 67.870834 -61.06942 104.01176
-60.030861 97.612617 -73.831299 27.567165 -20.349018 -61.240475 -19.231806 -4.1283045
-38.31892 67.735085 -59.447891 81.139412 15.19525 163.69974 -30.206398 -123.62479
190000000 -20.325497 -61.587105 -19.241203 -4.5193367 -64.299751 95.384865 -72.478371 92.420631
15.185222 163.14621 -32.256798 -128.76826 -40.131466 67.61142 -59.702545 104.19032
-63.663853 95.317329 -79.063591 148.46721 -20.474102 -61.996227 -19.246052 -4.7007346
-37.991589 66.982819 -63.149357 106.24352 15.187544 163.23424 -30.899519 -128.22237
200000000 -20.371336 -61.750526 -19.222006 -5.0167999 -65.335945 94.211166 -70.67572 -127.70805
15.179955 162.67784 -33.386086 -134.6609 -39.753605 65.691772 -62.493317 81.990196
-61.317059 100.37039 -79.061523 -116.62801 -20.58531 -62.434631 -19.21179 -5.3206563
-37.622528 65.761703 -61.264206 85.266434 15.177674 162.77153 -31.739241 -132.03033
210000000 -20.561989 -62.503738 -19.265554 -5.7451725 -63.316696 90.821251 -93.31337 70.481033
15.165197 162.19276 -34.335037 -142.55353 -39.424099 65.112663 -59.856487 93.999725
-58.664494 113.57699 -70.089989 129.55757 -20.518396 -62.665764 -19.244097 -5.6284523
-37.101433 65.76757 -60.077618 81.323235 15.181654 162.16476 -32.564381 -135.41338
220000000 -20.648499 -62.964584 -19.226002 -6.1095977 -60.186653 107.01259 -68.61972 -123.30153
15.158018 161.68279 -35.344753 -150.01231 -38.722221 65.627518 -59.846836 88.450317
-59.831009 92.816826 -80.467751 74.264648 -20.632927 -63.002731 -19.26918 -6.4027166
-36.739658 63.805252 -55.627483 96.6959 15.170337 161.68332 -33.444748 -142.31302
230000000 -20.650509 -63.216515 -19.255163 -6.6922555 -61.883877 109.7378 -70.735008 91.238846
15.148197 161.15105 -36.425884 -158.6154 -38.476845 64.77327 -61.239017 88.012039
-59.570217 101.73019 -79.013977 -157.00928 -20.723406 -63.377831 -19.241867 -6.9801865
-36.379765 62.973991 -58.436062 81.639 15.15981 161.1355 -34.494995 -148.92413
240000000 -20.684521 -63.812866 -19.24127 -7.1776657 -62.543926 111.43633 -86.902977 -16.612688
15.146636 160.61377 -37.281559 -168.56184 -38.133186 63.143822 -58.674576 86.327271
-57.630325 101.04359 -67.669304 -101.59339 -20.732635 -64.220856 -19.218752 -7.4709849
-36.068512 62.519749 -60.360622 72.774246 15.157248 160.60106 -35.451561 -154.65083
250000000 -20.716614 -64.605247 -19.287018 -7.7873368 -59.815147 110.74712 -71.367172 -156.66408
15.135081 160.08414 -37.183647 -175.98096 -37.926407 63.074585 -58.49752 105.08376
-58.555954 100.62776 -82.964264 59.886246 -20.754074 -64.669807 -19.237494 -7.782589
-35.83836 62.148048 -56.578289 89.950745 15.146339 160.05099 -35.849632 -161.46971
260000000 -20.77873 -64.312485 -19.236509 -8.1640472 -60.965565 129.15616 -67.352066 -3.1121056
15.133633 159.49773 -37.912952 164.52034 -37.629303 61.063961 -60.686832 80.077827
-56.729069 113.20428 -72.920189 -50.723137 -20.806517 -65.424515 -19.265703 -8.6920576
-35.526157 63.284763 -59.063843 78.345505 15.14516 159.48889 -37.008644 -167.95969
270000000 -20.709364 -65.028809 -19.258675 -8.8071575 -60.273651 117.27227 -76.081039 95.566147
15.131017 158.91457 -38.643112 158.49915 -37.134209 60.325016 -61.063148 91.952827
-56.368195 94.426674 -74.389473 -96.825012 -20.745235 -65.499367 -19.253906 -8.8798552
-35.149464 60.929569 -56.179886 63.061657 15.144126 158.96567 -37.20948 -179.27972
280000000 -20.755817 -65.826561 -19.278479 -9.2175674 -66.678894 112.19349 -81.647804 -55.519436
15.122872 158.38686 -38.093739 145.91095 -36.884159 59.17635 -60.267242 92.675453
-58.212292 107.67401 -65.35424 -132.40309 -20.77104 -65.672943 -19.26013 -9.3170385
-34.757427 61.019455 -56.792496 97.105255 15.133802 158.36176 -37.562256 170.86212
290000000 -20.773619 -66.385948 -19.25371 -9.6856079 -58.632557 96.446968 -84.113869 -89.96022
15.116923 157.78723 -37.432148 139.44327 -36.320843 58.46571 -59.84742 72.34153
-57.064087 88.235161 -66.38813 78.463028 -20.890619 -66.593468 -19.287884 -9.8437653
-34.5158 58.777016 -57.551056 92.143318 15.125335 157.80106 -37.284233 160.26689
300000000 -20.703196 -67.133118 -19.267305 -10.213223 -56.901524 121.85435 -66.473961 154.43756
15.113361 157.21419 -36.717049 130.2748 -36.246277 57.794617 -58.145439 111.39738
-54.939354 110.86224 -72.44593 -156.84312 -20.784668 -67.167931 -19.269905 -10.09854
-34.308155 57.687614 -56.107449 82.795364 15.123376 157.15739 -37.936363 151.29425
310000000 -20.790567 -68.118011 -19.268759 -10.652064 -64.209618 117.33474 -90.202408 118.71717
15.102648 156.64836 -35.672272 125.05574 -36.073437 58.341511 -56.022156 99.927338
-55.787273 88.834221 -64.222641 75.928398 -20.806837 -67.783646 -19.262594 -10.826966
-34.101349 58.037594 -56.426651 89.392303 15.115487 156.61313 -37.218494 140.46643
320000000 -20.80835 -69.320129 -19.301535 -11.07859 -58.429905 114.34978 -76.314987 73.797287
15.10205 156.05359 -34.731762 118.90231 -35.95282 58.792198 -56.861805 101.8759
-54.164909 110.11263 -70.930801 135.87843 -20.949469 -68.254669 -19.236862 -11.363564
-33.781319 57.236923 -53.461536 81.958168 15.110085 156.08617 -36.81823 129.26036
330000000 -20.878819 -69.747375 -19.284582 -11.31819 -62.779373 124.94475 -70.137634 70.613976
15.097052 155.48384 -33.683002 111.66243 -35.544918 55.193092 -57.404137 100.06754
-56.03508 92.356873 -72.285095 -2.005882 -20.918297 -69.891228 -19.286674 -11.684428
-33.430298 55.85154 -56.566906 76.608055 15.104991 155.42188 -35.832802 128.54897
340000000 -20.794806 -70.829216 -19.285763 -11.934036 -57.644711 105.92894 -70.534325 -115.06557
15.091439 154.87708 -33.233673 110.68755 -35.293495 54.885624 -57.204231 97.30851
-56.565529 100.70129 -69.287628 63.390926 -20.831018 -70.665314 -19.272533 -12.278638
-33.175861 56.090572 -56.045769 82.032372 15.104086 154.86209 -35.313828 127.40136
350000000 -20.850836 -70.915756 -19.271439 -12.368079 -57.704975 90.540268 -69.316597 1.73399
15.084762 154.29675 -32.337803 105.3379 -35.013783 53.363739 -56.536243 92.270607
-54.130569 89.823166 -69.356674 79.083794 -20.882479 -71.556213 -19.254482 -12.702844
-32.980751 53.841618 -55.294273 84.66111 15.100354 154.22513 -34.15596 120.77964
360000000 -20.868975 -72.903877 -19.298885 -12.852704 -57.205276 114.5597 -79.96463 -12.538288
15.07919 153.68687 -31.964252 106.68746 -34.946163 53.078316 -55.30468 100.14132
-53.909065 99.178192 -79.80777 -87.115128 -20.972595 -72.720879 -19.289238 -12.985978
-32.707661 53.75457 -54.719116 82.408234 15.091043 153.62372 -33.50787 117.29425
370000000 -20.911722 -73.595322 -19.277788 -13.495455 -57.013321 98.313469 -74.732826 171.39766
15.073895 153.05046 -31.077803 104.37689 -34.587563 53.072792 -55.115196 95.036072
-53.538235 108.24585 -82.342545 -119.95346 -21.032444 -73.790962 -19.29851 -13.446359
-32.364841 52.308937 -55.369606 93.609077 15.090003 153.02782 -32.834095 115.08022
380000000 -21.014982 -74.910118 -19.299995 -13.923417 -56.999119 114.43199 -68.904922 94.179916
15.068537 152.44884 -30.579477 103.72661 -34.292229 51.579033 -54.625324 96.287529
-55.118004 89.694351 -63.299515 -165.23196 -21.039804 -74.304832 -19.284998 -14.127041
-32.213669 51.654812 -53.804291 74.65728 15.08262 152.41531 -32.13213 111.52971
390000000 -21.085455 -76.197662 -19.309597 -14.243783 -56.985802 96.569443 -73.498604 -126.31969
15.064435 151.84955 -29.869411 101.67095 -34.011723 50.48914 -54.697571 99.121719
-54.053326 107.60559 -68.679962 83.306381 -21.001842 -75.786568 -19.278168 -14.601068
-32.0327 50.531116 -53.869015 82.596252 15.083444 151.78651 -32.003487 109.35946
400000000 -21.14732 -77.885567 -19.304323 -14.523534 -55.289204 122.71303 -70.670807 -40.634003
15.058399 151.21846 -29.116697 101.1202 -34.027706 48.291176 -55.468239 86.034203
-51.968235 92.514465 -69.614517 68.442505 -21.134443 -77.17321 -19.312893 -15.124389
-31.808878 49.55069 -53.538849 81.896469 15.072789 151.2133 -31.116341 108.12599
410000000 -21.055159 -78.675827 -19.325232 -15.173945 -55.545486 103.53345 -74.336815 -25.439304
15.056664 150.6162 -28.787331 100.21001 -33.682217 48.125679 -54.523026 90.44281
-54.296341 112.68414 -70.488289 169.15237 -21.072063 -78.301476 -19.283329 -15.600204
-31.66943 48.447239 -53.892933 93.626564 15.076008 150.55649 -30.627529 106.87228
420000000 -21.135744 -80.347076 -19.324415 -15.345741 -55.336033 111.12467 -82.14164 109.54568
15.050866 150.00423 -28.244539 99.633308 -33.64362 47.56546 -55.754025 102.22658
-52.93409 101.87895 -72.657852 9.9090147 -21.136242 -79.823418 -19.34329 -15.912232
-31.524317 47.417088 -53.568123 79.007599 15.070162 149.92902 -30.124746 106.2542
430000000 -21.198792 -81.546616 -19.310335 -15.944057 -54.925728 106.66683 -68.124916 165.69403
15.047045 149.4023 -27.723066 98.507301 -33.254105 46.471741 -54.171162 90.527405
-53.202522 98.740814 -67.404961 43.272923 -21.244955 -80.913445 -19.326504 -16.167616
-31.295477 46.883167 -52.403709 86.496979 15.063757 149.31592 -29.651781 105.05006
440000000 -21.16621 -82.581764 -19.319559 -16.441607 -54.801746 116.09826 -72.264458 155.65228
15.045053 148.77016 -27.404531 97.834381 -33.222214 46.04187 -53.554974 94.813454
-52.908123 96.56221 -78.377647 177.68875 -21.301666 -82.634392 -19.320219 -16.776052
-31.181295 46.406525 -52.431046 81.702393 15.058196 148.67973 -28.975903 104.99635
450000000 -21.177179 -84.169395 -19.360813 -16.93202 -54.615982 112.42263 -80.453575 -169.93201
15.038442 148.13522 -27.195736 98.113068 -32.935215 45.275646 -54.170841 91.177429
-53.324799 103.55611 -75.064163 178.96176 -21.34833 -84.419395 -19.339546 -17.240175
-31.03161 45.040081 -52.247383 87.072533 15.051538 148.10339 -28.653053 104.22865
460000000 -21.186525 -85.538185 -19.32403 -17.200052 -54.202175 110.08025 -76.939201 -67.751587
15.034431 147.51796 -26.754993 97.531235 -32.840294 44.755169 -52.282791 87.993454
-52.336212 102.38699 -68.981216 159.53275 -21.372351 -85.835083 -19.343193 -17.647114
-30.781132 44.187588 -51.82679 83.365318 15.052006 147.42128 -28.140511 103.72175
470000000 -21.313854 -87.200333 -19.358171 -17.708914 -55.017143 113.50188 -66.885818 82.546005
15.028844 146.89131 -26.36437 97.238159 -32.660229 42.817242 -52.954403 102.39865
-51.475136 94.82061 -73.787895 74.96772 -21.38176 -87.143684 -19.347826 -18.038368
-30.582376 43.075005 -51.494865 89.768906 15.047853 146.8217 -27.84898 103.18732
480000000 -21.329519 -88.744087 -19.355202 -18.090616 -52.697525 118.62805 -77.090462 107.99979
15.025878 146.24506 -26.070145 97.569092 -32.491341 42.410301 -53.736511 94.093636
-51.202812 95.409859 -68.497665 106.44363 -21.449417 -88.806061 -19.364779 -18.488476
-30.439859 42.342377 -52.311848 82.31588 15.039703 146.1843 -27.345888 101.94286
490000000 -21.341021 -90.495651 -19.373095 -18.64505 -52.702221 109.87684 -68.527451 110.86526
15.02114 145.62874 -25.649202 97.387024 -32.263149 42.253124 -53.806744 91.612526
-50.8587 99.937523 -71.112885 170.75528 -21.490786 -89.870636 -19.382982 -18.980347
-30.304487 41.499645 -51.29319 81.479027 15.043219 145.5627 -27.086441 101.40744
500000000 -21.411076 -92.057663 -19.364851 -19.028187 -52.482067 114.23311 -78.745697 128.67453
15.015715 145.01175 -25.268469 96.004112 -32.161072 40.506779 -52.503193 93.603416
-51.486244 96.758881 -79.65789 86.141434 -21.527317 -91.747009 -19.376102 -19.398523
-30.100328 40.956223 -51.811565 81.14566 15.037455 144.91467 -26.665417 101.01061
510000000 -21.361584 -93.702324 -19.375044 -19.37537 -53.295231 120.15777 -72.283981 -130.99277
15.010096 144.33708 -25.03739 95.834068 -32.161934 39.797916 -52.619511 93.459221
-50.972046 101.55553 -68.751793 130.15623 -21.489725 -93.404869 -19.388901 -19.855925
-29.896511 40.008194 -50.761612 81.466843 15.027847 144.28946 -26.314877 100.28322
520000000 -21.404085 -95.020012 -19.366461 -19.753906 -53.109104 108.6239 -79.578377 140.59903
15.009134 143.7663 -24.742056 95.382202 -31.833107 39.167007 -53.657887 91.119095
-50.905926 91.038322 -68.593185 177.49022 -21.485905 -94.450111 -19.358847 -20.381092
-29.804649 39.492046 -51.177223 81.433205 15.024615 143.63622 -26.126835 100.21858
530000000 -21.397631 -96.72097 -19.395998 -20.198538 -51.103577 112.353 -72.963112 179.44051
15.004126 143.0968 -24.414989 95.658607 -31.624134 37.82132 -51.559299 100.40272
-49.944221 92.006454 -78.827698 103.72446 -21.500534 -96.696259 -19.35508 -20.601681
-29.667398 38.39452 -50.850082 87.205421 15.020043 142.9908 -25.752987 100.03538
540000000 -21.451359 -98.35955 -19.394444 -20.862907 -52.473774 110.11111 -75.001556 -151.81667
14.998601 142.45795 -24.138041 95.159027 -31.522619 37.413021 -52.342045 96.35379
-50.343185 95.968353 -70.963249 117.0945 -21.556042 -98.241798 -19.404383 -20.935345
-29.563641 37.328331 -51.605637 76.925087 15.0158 142.38281 -25.360432 99.406532
550000000 -21.45966 -99.849953 -19.402641 -21.105738 -51.389854 105.59046 -63.268105 133.21869
14.990876 141.83107 -23.908897 94.521797 -31.501385 36.591743 -51.222038 95.488098
-50.416092 98.153557 -66.474442 141.56187 -21.551418 -99.572571 -19.423523 -21.507668
-29.31315 36.552177 -50.96077 78.374748 15.012025 141.70734 -25.134203 98.731857
