!Mini-Circuits Laboratory
!S-Parameters
!Model: MPGA-105+
!Run / Lot / Date Code: NA / BP384P001-05 / 1348
!Fixture: NA; TB-561+
!AUTO PORT EXTENSION DONE: PORT<1>=113.35ps; PORT<2>=112.76ps; PORT<3>=112.16ps; PORT<4>=112.11ps
!Network Analyzer: PNA-X N5242A - 423 4 ports;  Serial number: 71256
!Date: 2/15/2014
!S/N: Unit# 1
!Correction: S11(Full 4 Port(1,2,3,4)) 
!S12(Full 4 Port(1,2,3,4)) 
!S13(Full 4 Port(1,2,3,4)) 
!S14(Full 4 Port(1,2,3,4)) 
!S21(Full 4 Port(1,2,3,4)) 
!S22(Full 4 Port(1,2,3,4)) 
!S23(Full 4 Port(1,2,3,4)) 
!S24(Full 4 Port(1,2,3,4)) 
!S31(Full 4 Port(1,2,3,4)) 
!S32(Full 4 Port(1,2,3,4)) 
!S33(Full 4 Port(1,2,3,4)) 
!S34(Full 4 Port(1,2,3,4)) 
!S41(Full 4 Port(1,2,3,4)) 
!S42(Full 4 Port(1,2,3,4)) 
!S43(Full 4 Port(1,2,3,4)) 
!S44(Full 4 Port(1,2,3,4)) 
!S4P File: Measurements: <S11,S12,S13,S14>,
!<S21,S22,S23,S24>,
!<S31,S32,S33,S34>,
!<S41,S42,S43,S44>:
# Hz S  dB   R 50
10000000 -2.811353 -40.155716 -22.587927 47.762112 -40.245686 153.1839 -48.731956 174.5789
20.078283 158.2934 -3.9297395 -43.160378 -30.856651 162.92419 -39.355015 -174.53516
-50.693832 -147.31554 -55.000401 -95.755882 -2.7006369 -40.481014 -22.572416 51.47913
-46.894569 -91.811134 -42.592884 -66.651672 20.146015 159.20401 -3.8118482 -43.814087
20000000 -5.9796023 -62.912094 -19.733154 31.060665 -61.762829 -48.422878 -62.631474 -2.813715
17.894783 153.45862 -7.0507097 -68.703049 -55.810307 66.77742 -63.280018 156.74001
-63.365021 85.973747 -65.616539 -178.86432 -5.873642 -62.828663 -19.52936 31.006641
-54.249638 47.122917 -65.53228 42.421047 17.928015 153.40804 -6.97437 -68.481941
30000000 -8.662262 -74.99279 -18.903196 20.985428 -68.043037 -85.22892 -69.933739 128.8605
16.468916 154.46669 -9.6207428 -83.561577 -55.451237 65.115486 -61.810024 110.21893
-73.531303 100.0003 -62.776756 160.4046 -8.6024218 -75.289246 -18.807184 21.071041
-50.705555 63.45517 -65.588219 -136.2431 16.490879 154.23457 -9.5788383 -83.945801
40000000 -10.82634 -82.792961 -18.565622 15.3872 -71.970169 111.00622 -68.91806 35.223228
15.634865 156.58778 -11.70157 -93.961021 -52.9286 61.736351 -63.755108 161.31448
-65.347244 137.19676 -70.243988 35.862862 -10.765144 -83.07386 -18.594416 15.373231
-50.323437 67.464256 -66.393974 133.86986 15.638708 156.43581 -11.683094 -94.283806
50000000 -12.602481 -87.490479 -18.484892 11.530779 -61.399582 71.870239 -57.273258 96.466949
15.135447 158.60104 -13.310538 -101.63448 -48.67067 67.61264 -57.975906 115.84739
-57.387688 63.044819 -59.009968 -146.627 -12.457249 -88.560387 -18.419003 11.867344
-47.465595 66.022758 -65.395668 -165.64734 15.145368 158.4491 -13.239011 -102.56082
60000000 -13.81948 -93.075073 -18.278601 9.2753744 -59.98243 -14.065069 -54.797092 -23.937761
14.813438 160.1248 -14.49364 -109.5159 -49.91399 62.825657 -68.535263 74.071571
-67.42382 125.96857 -68.582153 17.810513 -13.900889 -93.401215 -18.34267 9.0563231
-49.391205 55.410599 -55.676056 68.501251 14.804395 159.97812 -14.459614 -109.17805
70000000 -15.1844 -96.063049 -18.278893 6.4116926 -71.456589 6.2007432 -71.354546 83.351036
14.60446 161.32417 -15.729872 -115.03609 -48.414768 64.826714 -69.67318 94.102333
-74.658661 135.7112 -70.241776 15.565344 -15.166137 -96.701042 -18.28178 6.7169051
-47.583992 70.149422 -70.982162 121.97516 14.596223 161.25119 -15.59155 -115.56781
80000000 -16.254797 -98.994431 -18.237194 4.810431 -68.969955 68.105583 -80.644035 -2.3997805
14.462893 162.09081 -16.656813 -120.49422 -47.490261 67.539658 -67.466759 57.851887
-65.992966 123.11958 -69.446129 140.68973 -16.278564 -99.578598 -18.230457 4.8653316
-45.598854 64.526642 -63.036411 103.05103 14.452905 162.09024 -16.55621 -120.98146
90000000 -17.189644 -101.50022 -18.228313 3.2861104 -72.333183 74.095016 -69.411072 -12.709326
14.363755 162.6326 -17.465668 -125.3933 -47.130589 66.773773 -67.121925 112.45982
-64.856781 86.348183 -74.876015 82.918465 -17.172964 -102.22052 -18.215593 3.2939634
-44.851208 65.428673 -66.513824 103.55903 14.348045 162.64993 -17.338972 -125.85557
100000000 -18.077963 -103.73819 -18.216316 2.0205636 -64.593849 84.935448 -71.799652 4.3998899
14.287685 162.96623 -18.239967 -130.26518 -45.950077 70.15403 -66.932701 77.873245
-64.4636 67.96273 -68.792732 163.53061 -18.008917 -104.74188 -18.188616 2.0021508
-43.896252 67.128792 -63.395725 90.02916 14.275286 162.97488 -18.028646 -130.70403
110000000 -18.824192 -106.29576 -18.17156 0.72615069 -65.819687 90.687004 -69.122177 -2.6386039
14.237293 163.08568 -18.881758 -135.14339 -45.430965 67.720619 -61.113186 86.357201
-62.284664 88.364456 -74.786919 -145.39116 -18.82007 -106.98888 -18.185148 0.8836031
-43.361885 68.551735 -60.867512 109.24761 14.22868 163.12201 -18.692591 -135.33839
120000000 -19.512888 -108.49633 -18.185301 -0.23651507 -66.190712 83.401703 -71.933342 -81.591759
14.19365 163.13673 -19.44841 -139.60168 -44.589195 67.981689 -64.541801 95.750046
-61.462631 102.85747 -75.043076 -60.447918 -19.554089 -109.88558 -18.180086 -0.21489437
-42.860924 66.673889 -61.598541 99.080811 14.178146 163.13284 -19.180367 -140.10405
130000000 -20.272875 -110.7479 -18.197601 -1.2780507 -59.989708 -14.49785 -64.728714 -170.57898
14.165758 163.10693 -19.943686 -144.28481 -44.186516 67.773659 -63.426319 117.98489
-64.014565 124.1647 -75.611885 -124.27945 -20.155531 -112.49807 -18.171434 -1.4292032
-41.727127 68.877586 -60.727093 94.423866 14.138887 163.16579 -19.56917 -144.45107
140000000 -20.783773 -113.53912 -18.171339 -2.2913799 -68.123184 115.1356 -81.071564 169.26823
14.127902 162.94601 -20.283674 -149.5269 -43.538445 67.588829 -64.18264 90.122192
-63.187012 104.47102 -73.050797 -86.626617 -20.791353 -114.35847 -18.171099 -2.1984336
-41.356155 69.787567 -63.085117 68.298248 14.113956 162.95193 -20.002373 -148.86124
150000000 -21.265909 -116.17827 -18.161522 -3.1125796 -66.358269 88.903137 -69.771164 -65.547684
14.09903 162.72067 -20.579103 -154.54308 -43.043568 68.447716 -66.273979 93.843414
-60.871254 106.36502 -71.685524 -36.176109 -21.326115 -116.81004 -18.147169 -3.2065928
-41.124836 66.163368 -60.107204 77.303612 14.083661 162.84033 -20.286222 -153.15451
160000000 -21.813269 -118.58042 -18.169624 -3.9561608 -66.267609 75.458801 -75.491257 -96.463104
14.080585 162.4848 -20.78507 -159.03961 -42.256561 66.774094 -63.42461 78.844757
-60.407402 95.106834 -70.822365 -138.44389 -21.838648 -119.79627 -18.168501 -3.9318881
-40.611961 66.380898 -60.923092 81.479332 14.058043 162.55287 -20.492994 -157.76375
170000000 -22.280701 -121.95831 -18.155302 -4.7794099 -60.6474 100.91582 -77.502182 63.591274
14.064192 162.18076 -20.898687 -163.78214 -42.098991 67.297508 -61.122372 113.50475
-59.432373 102.31004 -76.825287 -57.243664 -22.283279 -122.31107 -18.149235 -4.6491032
-39.851475 66.723801 -62.301331 88.733513 14.045371 162.27306 -20.694475 -161.8548
180000000 -22.678188 -124.68664 -18.157787 -5.4556537 -62.811619 115.38289 -71.39856 -160.03928
14.049802 161.86249 -20.969696 -167.73741 -41.426495 67.575851 -61.081497 116.81391
-62.176388 106.13318 -75.917007 22.821627 -22.754515 -125.4188 -18.165064 -5.604413
-39.295273 65.944572 -58.152332 77.803116 14.02863 161.93336 -20.765211 -165.69083
190000000 -22.998705 -128.10025 -18.172239 -6.2497511 -60.224445 89.946404 -79.310707 -154.22455
14.037577 161.46468 -20.937233 -171.86841 -40.924557 65.974174 -64.210747 84.752434
-58.400345 78.265762 -85.159966 122.24052 -23.089817 -128.91147 -18.170094 -6.2686186
-38.908375 65.499657 -57.053192 86.263474 14.017273 161.55292 -20.730022 -169.42354
200000000 -23.270494 -131.2068 -18.175455 -6.8863721 -59.383148 98.000565 -75.409187 179.89177
14.030283 161.06422 -20.888906 -175.93089 -40.548038 66.226845 -61.400467 75.992493
-60.840801 87.857384 -68.749786 104.45525 -23.367632 -132.15245 -18.163361 -7.1492944
-38.487949 64.056099 -55.8582 80.709534 14.005716 161.15103 -20.747885 -173.00674
210000000 -23.494301 -135.71997 -18.180519 -7.6765242 -62.479668 80.311295 -69.758011 78.984856
14.012773 160.64497 -20.75919 -179.48589 -40.223843 64.832886 -59.81152 95.289291
-59.868816 84.866798 -68.915115 94.086418 -23.598768 -134.71437 -18.150806 -7.7498684
-38.176708 64.070847 -57.182163 88.710266 14.009305 160.6188 -20.703596 -175.97195
220000000 -23.650015 -139.04788 -18.184847 -8.257823 -60.595226 98.048332 -74.542374 -75.916763
14.002598 160.21381 -20.63257 177.1843 -39.779213 63.300507 -59.857899 102.95201
-59.488956 97.963646 -77.700615 -31.451614 -23.871742 -138.6057 -18.141613 -8.4354773
-37.626156 62.892731 -58.918793 90.248306 13.997156 160.21745 -20.614985 -179.33064
230000000 -23.786955 -141.87973 -18.166718 -8.8842812 -60.698246 117.91074 -78.218529 -120.27208
13.992207 159.74232 -20.519833 174.25998 -39.447147 63.11784 -58.921715 91.962631
-58.093418 98.756111 -74.289207 -125.10641 -24.11001 -141.80914 -18.176273 -9.1828766
-37.184059 61.748947 -57.463402 83.111923 13.985763 159.73123 -20.528904 177.51448
240000000 -23.877876 -145.09247 -18.17642 -9.7097626 -59.737339 88.431358 -80.188782 -44.708904
13.987773 159.25073 -20.374512 171.44843 -39.017952 63.666748 -58.417721 83.778557
-58.313957 106.13953 -80.875267 166.30081 -24.251591 -145.13979 -18.161354 -9.839962
-37.116917 61.784431 -57.579437 83.293076 13.982696 159.2494 -20.42626 175.20174
250000000 -23.855597 -147.94005 -18.181225 -10.368172 -61.545799 94.899582 -77.041351 173.17789
13.976668 158.7522 -20.207432 169.27191 -38.792862 60.035465 -58.011654 93.760544
-58.072403 85.281166 -67.812912 166.55385 -24.233755 -148.13521 -18.173164 -10.464358
-36.814289 60.442993 -57.229355 82.243004 13.969199 158.7489 -20.254635 172.95193
260000000 -24.091385 -151.70392 -18.192249 -11.021632 -57.336395 95.7136 -72.177238 75.150352
13.97656 158.23572 -20.00559 166.21709 -38.511833 60.334908 -56.079754 76.446068
-58.824635 87.159325 -72.410835 106.59964 -24.282558 -151.77214 -18.169111 -11.084324
-36.31065 58.915787 -57.250935 77.693748 13.972148 158.22797 -20.149727 170.6992
270000000 -24.021826 -153.58418 -18.175945 -11.371857 -56.855232 70.306152 -79.283409 -158.27049
13.974632 157.69713 -19.915981 164.73515 -37.947517 58.601997 -58.463047 90.801849
-56.712227 100.92391 -72.586899 -148.85049 -24.447948 -154.79579 -18.172188 -11.448089
-36.095039 59.996117 -56.007271 87.627045 13.969239 157.74132 -20.037302 167.99146
280000000 -24.031122 -156.43144 -18.189024 -12.119021 -58.470497 101.98157 -66.778763 -135.91885
13.965927 157.21278 -19.767727 162.55588 -37.86153 59.600609 -57.501579 94.188393
-56.851143 92.872543 -68.089851 -177.3885 -24.512075 -157.56721 -18.167059 -12.361679
-35.706902 58.218006 -54.770515 82.981407 13.959693 157.18002 -19.910816 166.41072
290000000 -23.985945 -158.25789 -18.200426 -12.668697 -57.979893 109.79694 -76.142662 -103.40688
13.963511 156.66817 -19.620607 160.70811 -37.568508 58.287182 -57.643318 91.123955
-58.282242 80.10656 -71.361641 36.37402 -24.462097 -162.17181 -18.211945 -12.773044
-35.531624 58.577854 -57.727325 91.788246 13.951218 156.67032 -19.754082 164.18106
300000000 -23.920458 -160.47382 -18.19677 -13.39649 -57.746876 95.154533 -73.970009 135.47174
13.962164 156.12512 -19.512899 158.47737 -37.259098 56.837078 -58.538422 94.656113
-55.964233 82.446159 -68.177155 79.620644 -24.420458 -163.22136 -18.194845 -13.560979
-35.289944 56.225517 -55.929333 90.044662 13.953622 156.05995 -19.734938 162.18419
310000000 -23.818275 -162.9962 -18.199867 -13.988989 -58.59911 113.16254 -78.86425 93.578033
13.948709 155.58923 -19.34779 156.61186 -37.104797 56.425846 -55.872932 89.212036
-55.375694 87.882118 -73.141617 27.000578 -24.42658 -166.15279 -18.20933 -14.085845
-34.949524 56.298515 -53.868031 82.610817 13.945522 155.55299 -19.561676 160.313
320000000 -23.826017 -165.19371 -18.198313 -14.384396 -57.518932 88.381081 -83.544952 -67.08371
13.950485 155.03522 -19.200514 154.89392 -36.7883 55.789394 -56.700481 97.282982
-54.601315 91.955826 -75.595406 112.43697 -24.37422 -168.49507 -18.193716 -14.760604
-34.682438 54.490623 -54.583996 67.626457 13.939689 155.06512 -19.485006 158.29012
330000000 -23.841852 -166.78693 -18.242388 -15.18646 -58.814053 100.05399 -81.89843 -52.337463
13.947902 154.50262 -19.127739 152.81363 -36.450382 53.577492 -55.050163 86.276703
-54.236568 84.684578 -72.368484 85.35276 -24.163702 -170.71724 -18.202902 -15.277134
-34.357395 55.342663 -54.287701 92.550125 13.936412 154.41589 -19.282772 156.82147
340000000 -23.76207 -168.19196 -18.227871 -15.738631 -59.35553 83.341583 -90.823624 16.977222
13.942397 153.92938 -19.020386 151.69534 -36.125572 53.552532 -58.083694 84.789619
-54.860584 91.871613 -68.993042 -169.17499 -24.035913 -171.66145 -18.199423 -16.042671
-34.084389 54.387871 -54.087456 73.22554 13.938779 153.8736 -19.151653 155.41496
350000000 -23.850063 -169.92134 -18.227381 -16.151787 -56.776714 104.81423 -77.065666 -53.357918
13.938731 153.35127 -18.914091 149.76465 -36.07613 53.504417 -54.157429 89.030365
-52.418449 88.853508 -73.200752 -117.55447 -23.953438 -173.98325 -18.209978 -16.490099
-33.857052 53.606163 -53.70129 84.713737 13.935151 153.27072 -18.972679 153.39537
360000000 -23.747143 -171.0573 -18.249203 -16.843147 -57.459736 107.72977 -100.11814 -97.402496
13.936162 152.784 -18.795803 148.61691 -35.765408 52.654377 -54.359047 87.032272
-53.351231 81.912224 -68.072098 122.70595 -23.851425 -175.19154 -18.210709 -17.059986
-33.778419 52.447746 -52.544468 79.996094 13.92977 152.70943 -18.904793 151.80492
370000000 -23.761732 -172.69185 -18.255894 -17.392759 -56.223896 94.020195 -71.5504 136.42079
13.932795 152.16049 -18.716936 146.79587 -35.661034 50.666031 -54.647659 92.945908
-54.662697 90.851387 -69.447327 179.53513 -23.714169 -176.73805 -18.227118 -17.649918
-33.516003 51.253403 -53.946079 89.228165 13.929662 152.13298 -18.725065 150.15907
380000000 -23.69368 -174.57655 -18.248875 -17.915663 -57.082928 87.054413 -74.969635 93.578514
13.929853 151.59608 -18.606956 145.24347 -35.272133 50.477615 -53.44659 82.767609
-53.406597 92.455627 -69.09108 146.63109 -23.714848 -178.40489 -18.238029 -18.234434
-33.292953 50.09 -52.651398 84.007996 13.925961 151.55238 -18.620628 148.23085
390000000 -23.642281 -176.11043 -18.261274 -18.53825 -56.307896 91.076393 -76.522018 -166.61061
13.929427 151.02739 -18.516451 143.67755 -35.117725 51.560879 -55.118675 90.335854
-52.813583 84.192223 -73.317688 75.490479 -23.584414 -178.99683 -18.246168 -18.8687
-33.061333 49.539024 -52.304214 80.484528 13.928889 150.94482 -18.54097 146.85495
400000000 -23.60347 -177.28249 -18.27774 -19.010412 -58.167076 96.061081 -70.314629 101.09602
13.925268 150.43758 -18.373474 142.10622 -34.936077 48.340969 -54.010269 88.486801
-53.415997 89.576645 -64.921799 -178.3679 -23.4319 179.20175 -18.215216 -19.570576
-32.873802 49.451408 -53.014511 81.133354 13.921884 150.38329 -18.403967 145.08743
410000000 -23.611917 -178.22162 -18.275299 -19.694647 -56.587288 102.94209 -72.936455 34.087292
13.927972 149.81567 -18.314342 140.74469 -34.683643 48.064552 -53.050259 85.958244
-51.295437 93.546982 -69.53418 170.882 -23.378387 178.46078 -18.27343 -20.006607
-32.624561 49.255535 -52.167374 77.591202 13.927647 149.75543 -18.293043 143.75255
420000000 -23.575954 -179.92438 -18.262133 -20.136204 -55.790482 102.25751 -74.270737 -69.152336
13.927217 149.22037 -18.171251 139.02911 -34.411808 45.748764 -53.413376 83.368629
-50.812397 81.883202 -75.930161 -52.085537 -23.283594 177.76611 -18.249773 -20.486147
-32.435928 46.481171 -52.078014 78.477623 13.92313 149.14925 -18.181732 142.39046
430000000 -23.605627 179.10843 -18.284239 -20.68755 -54.618317 113.29933 -68.649193 61.772381
13.927183 148.64267 -18.064281 137.74092 -34.244186 45.133789 -53.269703 85.836472
-52.250313 84.549126 -75.729141 119.99655 -23.260021 176.06117 -18.254812 -20.913124
-32.148548 47.48819 -51.053127 75.338409 13.921765 148.56555 -18.064196 140.97568
440000000 -23.599932 178.07614 -18.285118 -21.195629 -55.212921 99.210205 -74.094215 88.925919
13.928539 148.03535 -17.987837 136.34294 -34.041611 44.710018 -52.703201 89.056763
-51.639175 88.389503 -71.335869 -28.628798 -23.173067 175.08377 -18.255335 -21.539063
-32.067505 46.182369 -50.918449 75.538597 13.917198 147.94533 -17.939177 139.85553
450000000 -23.525671 176.6109 -18.282919 -21.833033 -54.087746 104.00108 -74.519356 169.76521
13.925982 147.39775 -17.903261 135.24295 -33.943233 44.165993 -53.025181 86.490524
-51.710556 82.311272 -78.860489 -89.288315 -23.083784 173.61438 -18.305153 -22.152716
-31.903685 44.536964 -51.756752 73.86512 13.916917 147.36082 -17.822607 138.56618
460000000 -23.488708 175.66064 -18.306162 -22.348614 -54.478584 99.0774 -72.844986 71.093742
13.926406 146.79022 -17.769136 134.09439 -33.802166 43.380104 -52.441051 88.919609
-52.627884 82.185806 -84.070709 122.30603 -23.069834 172.84282 -18.282692 -22.573799
-31.747263 44.25518 -52.50193 73.593147 13.918045 146.72984 -17.714594 137.2747
470000000 -23.412411 173.88066 -18.304564 -22.849524 -54.720528 96.118279 -68.4683 159.52792
13.921073 146.18036 -17.663044 132.91238 -33.654457 42.038845 -52.615227 85.592598
-50.052467 87.310684 -66.778236 135.80495 -23.075951 171.88322 -18.305439 -23.492468
-31.563309 43.398075 -51.557354 78.275032 13.921567 146.15239 -17.641407 136.20807
480000000 -23.368162 173.02791 -18.332865 -23.493729 -53.349911 104.63138 -78.682953 148.43716
13.924685 145.54622 -17.539202 131.92117 -33.413334 41.994064 -51.66346 83.219887
-51.597309 89.97406 -71.017967 82.47686 -23.00919 169.98978 -18.323503 -23.89608
-31.397316 42.48867 -50.685253 75.450058 13.915064 145.50566 -17.53318 135.01801
490000000 -23.274471 171.78523 -18.3046 -24.053535 -53.405548 104.73034 -68.659882 157.08295
13.92405 144.93748 -17.401491 130.59834 -33.181587 40.35807 -51.889645 82.048386
-50.99865 85.176407 -78.193275 -20.171194 -23.017153 168.94334 -18.30308 -24.575634
-31.238674 41.485161 -51.249065 76.51532 13.924533 144.90718 -17.469616 133.75046
500000000 -23.24399 170.06798 -18.340292 -24.651875 -54.008263 98.170464 -70.60836 -32.832226
13.923108 144.32813 -17.319656 129.2619 -33.177761 39.346817 -51.655102 87.883713
-49.818161 83.860733 -65.971436 106.0183 -22.961868 167.39272 -18.326197 -25.135111
-30.971689 40.788918 -51.336662 76.033989 13.920629 144.2692 -17.331858 132.73346
510000000 -23.188583 169.57716 -18.372732 -25.19593 -55.083778 104.51601 -69.520996 99.264046
13.925537 143.66943 -17.191332 128.25058 -33.143757 38.78788 -53.123608 85.156998
-50.527756 87.09903 -66.777115 73.866112 -22.972849 166.67624 -18.319096 -25.44623
-30.917362 39.7318 -51.02964 78.921753 13.920664 143.65717 -17.263807 131.54973
520000000 -23.192036 167.8687 -18.324701 -25.630409 -51.861874 90.125229 -67.940865 134.24648
13.924827 143.09949 -17.068697 127.2445 -32.840984 38.295372 -51.38876 88.262932
-49.669003 90.221268 -74.633293 126.90294 -22.99935 165.06856 -18.304342 -26.099321
-30.680878 38.850491 -51.254658 72.878632 13.921047 143.02029 -17.179728 130.89246
530000000 -23.081297 166.8197 -18.377058 -26.297054 -53.306606 93.383934 -72.645149 103.96196
13.922669 142.4175 -16.945192 126.44762 -32.702919 36.913372 -51.169308 83.329552
-50.013069 83.861702 -72.360245 57.500393 -22.83478 163.80833 -18.351423 -26.50493
-30.559965 37.823257 -49.790516 75.521713 13.921679 142.36615 -17.063547 129.95209
540000000 -23.013325 165.21741 -18.379845 -26.644398 -52.723099 99.435829 -67.120522 170.99034
13.92469 141.80484 -16.8349 125.21243 -32.501686 36.470398 -50.618763 83.342384
-49.444786 86.312103 -66.452232 149.55296 -22.896957 161.6817 -18.360859 -27.159204
-30.459963 37.151176 -49.952187 81.067871 13.921086 141.79141 -16.952484 128.972
550000000 -22.929058 163.7099 -18.360601 -27.320648 -51.803719 100.06603 -76.464447 65.325142
13.92271 141.17168 -16.742046 124.18572 -32.254208 36.117012 -50.217819 87.137177
-49.635189 84.266205 -77.391098 -130.60522 -22.85947 160.51691 -18.342682 -27.673023
-30.259451 36.365253 -49.771679 75.495712 13.921245 141.10518 -16.887039 127.9799
560000000 -22.862604 163.00752 -18.372646 -27.851316 -52.779877 101.43479 -68.430519 108.23589
