!Mini-Circuits Laboratory
!S-Parameters
!Model: MPGA-105+
!Run / Lot / Date Code: NA / BP384P001-05 / 1348
!Fixture: NA; TB-561+
!AUTO PORT EXTENSION DONE: PORT<1>=113.35ps; PORT<2>=112.76ps; PORT<3>=112.16ps; PORT<4>=112.11ps
!Network Analyzer: PNA-X N5242A - 423 4 ports;  Serial number: 71256
!Date: 2/15/2014
!S/N: Unit# 1
!Correction: S11(Full 4 Port(1,2,3,4)) 
!S12(Full 4 Port(1,2,3,4)) 
!S13(Full 4 Port(1,2,3,4)) 
!S14(Full 4 Port(1,2,3,4)) 
!S21(Full 4 Port(1,2,3,4)) 
!S22(Full 4 Port(1,2,3,4)) 
!S23(Full 4 Port(1,2,3,4)) 
!S24(Full 4 Port(1,2,3,4)) 
!S31(Full 4 Port(1,2,3,4)) 
!S32(Full 4 Port(1,2,3,4)) 
!S33(Full 4 Port(1,2,3,4)) 
!S34(Full 4 Port(1,2,3,4)) 
!S41(Full 4 Port(1,2,3,4)) 
!S42(Full 4 Port(1,2,3,4)) 
!S43(Full 4 Port(1,2,3,4)) 
!S44(Full 4 Port(1,2,3,4)) 
!S4P File: Measurements: <S11,S12,S13,S14>,
!<S21,S22,S23,S24>,
!<S31,S32,S33,S34>,
!<S41,S42,S43,S44>:
# Hz S  dB   R 50
10000000 -3.07479 -37.402809 -22.815722 43.872906 -38.797955 -102.40989 -47.495705 -116.5924
19.833986 159.92162 -4.4490895 -40.830486 -30.450525 -92.928123 -38.801037 -105.44955
-45.532703 -68.745972 -53.728722 -50.455803 -2.9414961 -37.955536 -23.070818 47.208153
-35.816082 -53.135021 -41.896744 -41.460922 19.883371 160.86067 -4.2927246 -42.118851
20000000 -6.6035628 -53.747688 -20.3904 27.660742 -65.974129 150.47055 -74.034996 -164.1237
17.854429 157.72418 -8.0561275 -61.203754 -61.479923 68.863129 -61.740051 -120.78905
-61.942245 117.4798 -62.586342 -173.14134 -6.5162587 -53.616058 -20.319054 28.181868
-50.08197 67.989868 -56.573017 105.01371 17.88376 157.72343 -8.0104923 -61.113686
30000000 -9.3379841 -59.390026 -19.742321 18.775179 -68.486015 107.62884 -73.195076 -59.445507
16.753408 159.69969 -11.029358 -70.508842 -52.523483 59.113075 -72.084038 -160.93224
-72.883064 26.465889 -63.364769 162.00555 -9.3129749 -59.586906 -19.757154 18.841087
-52.160347 56.328331 -66.231316 83.488098 16.780111 159.54578 -10.965231 -70.954346
40000000 -11.423635 -61.311958 -19.49564 13.784979 -76.170845 154.92032 -69.16169 45.537975
16.178164 161.80069 -13.414038 -75.94928 -52.406822 72.800026 -68.742043 -152.68944
-59.476322 55.886082 -65.498528 179.89926 -11.3914 -61.474941 -19.516916 13.744688
-52.598694 68.993393 -78.830063 132.16086 16.18976 161.71609 -13.389035 -76.294426
50000000 -13.049434 -61.232243 -19.415863 10.193187 -58.902016 -119.97786 -58.30386 -174.63905
15.851862 163.42857 -15.370717 -79.176155 -54.436321 72.71582 -59.284653 -179.2928
-64.21917 124.93502 -58.381199 -110.57195 -12.96062 -62.302467 -19.438068 10.342289
-48.799999 72.125511 -65.616493 -113.14948 15.871639 163.36539 -15.346233 -80.614601
60000000 -14.310517 -62.299549 -19.367075 8.1410866 -54.360226 120.51804 -58.017868 59.815697
15.650041 164.55128 -16.972567 -83.709122 -50.122494 81.605423 -71.142838 153.99449
-68.097977 54.209076 -75.137024 12.365742 -14.360495 -62.132805 -19.317072 8.0043554
-45.729221 60.944447 -55.075447 105.64251 15.654649 164.44441 -17.038904 -83.004829
70000000 -15.378274 -61.095249 -19.260952 6.0034242 -65.392303 122.37467 -76.940498 88.088722
15.519573 165.27998 -18.642612 -85.799911 -48.095913 71.000061 -67.25988 68.967209
-62.667629 63.541325 -71.246361 -27.10541 -15.4149 -61.337414 -19.273865 5.9540749
-45.640514 70.091347 -63.419353 80.355347 15.524995 165.2774 -18.487959 -86.341339
80000000 -16.254318 -60.725231 -19.260828 4.4461708 -64.92466 136.75517 -69.155098 146.67912
15.432871 165.67427 -20.021013 -88.541672 -47.385113 76.350891 -68.829582 139.62677
-63.115223 89.573036 -69.422379 103.34966 -16.308109 -60.516998 -19.275217 4.6010709
-44.74474 69.961967 -62.381149 76.878151 15.437763 165.71811 -19.923285 -89.036469
90000000 -16.946207 -60.208637 -19.249884 3.1713479 -62.785015 112.92177 -79.262962 106.4952
15.37272 165.88211 -21.228773 -91.255081 -46.364605 72.673477 -65.944122 88.549011
-65.114052 120.4128 -71.336914 60.386593 -16.994028 -60.245029 -19.231585 3.4023452
-44.252968 70.98304 -62.977409 92.116158 15.372253 165.94623 -21.142315 -91.785858
100000000 -17.559778 -59.876068 -19.252403 2.1596735 -68.511055 143.47798 -71.947899 130.27716
15.322789 165.92542 -22.479923 -93.819763 -45.702904 71.931213 -64.583099 124.10869
-62.417393 89.594765 -74.754692 31.872065 -17.590664 -60.209373 -19.224667 2.2918553
-43.343513 68.835938 -65.366547 115.71732 15.327985 165.989 -22.271 -95.226242
110000000 -18.085804 -59.857048 -19.226486 1.12218 -69.44915 110.30257 -75.265144 -160.55602
15.291674 165.81252 -23.685486 -96.803223 -44.794907 72.98468 -64.124786 91.329544
-65.115257 106.974 -71.091652 153.59987 -18.155096 -59.659176 -19.22793 1.1632458
-42.892555 69.837357 -64.762611 129.60536 15.30053 165.88078 -23.422165 -98.088013
120000000 -18.5089 -59.674244 -19.22599 0.38449454 -67.099915 134.31313 -74.684509 -15.003125
15.262565 165.66658 -24.73138 -99.260643 -44.439117 72.377335 -60.857929 89.47522
-63.630844 83.930031 -74.309982 -177.46002 -18.672167 -59.97361 -19.226101 0.38913816
-41.747147 71.021629 -63.782314 92.042107 15.265581 165.68149 -24.494289 -101.43797
130000000 -18.942057 -60.026352 -19.266232 -0.877487 -61.875507 138.763 -60.491745 -92.470589
15.243949 165.4628 -25.827066 -102.27992 -43.37661 70.581833 -66.759308 80.974014
-67.34639 102.56181 -75.052223 31.933559 -19.046406 -60.071877 -19.201893 -0.59207988
-41.083916 70.49057 -66.22274 107.97069 15.239946 165.53784 -25.29056 -105.2718
140000000 -19.23571 -59.956009 -19.194437 -1.2749822 -66.207779 115.57897 -84.75106 50.763565
15.217053 165.13774 -26.972754 -107.1524 -42.767143 69.179657 -65.98362 92.392845
-63.167557 88.928467 -74.685333 -72.301392 -19.362238 -59.746902 -19.210039 -1.388631
-40.668373 69.979607 -60.651035 69.772156 15.223539 165.16238 -26.347731 -107.73421
150000000 -19.526522 -60.400368 -19.210102 -1.8475672 -67.480949 120.26029 -78.237915 -120.93399
15.198673 164.7845 -27.995243 -111.56105 -41.967651 70.708733 -63.138721 86.266098
-65.78759 99.359612 -83.337807 41.008114 -19.605701 -60.086201 -19.198305 -2.0746272
-40.083054 67.343491 -62.867233 62.550957 15.20004 164.90823 -27.27 -111.35263
160000000 -19.777531 -60.301693 -19.211367 -2.6382153 -66.085297 90.882362 -73.640434 47.541008
15.183657 164.43404 -28.896929 -114.87661 -41.448387 70.090279 -62.071159 95.492622
-63.196323 86.428253 -69.094215 157.85698 -19.90535 -60.477543 -19.244905 -2.6845014
-39.478592 67.578918 -61.643684 104.14436 15.181014 164.51492 -28.134295 -115.87798
170000000 -20.012228 -60.667374 -19.210533 -3.1851759 -65.490128 87.269524 -71.274956 61.240822
15.171714 164.02238 -29.974852 -119.74987 -41.163033 67.64843 -62.064392 96.195801
-63.710289 101.67889 -74.044739 -14.838634 -20.096575 -60.711933 -19.2295 -3.2435036
-38.899609 66.917786 -58.569145 90.920746 15.171753 164.11734 -29.055105 -119.53289
180000000 -20.137609 -60.8955 -19.215891 -3.8881156 -64.090363 100.85226 -76.049667 177.43071
15.158978 163.61055 -30.863462 -123.14075 -40.847252 67.383011 -64.710312 92.579231
-60.22728 86.513855 -67.645752 39.243534 -20.278997 -61.103439 -19.203382 -3.9912539
-38.527039 67.098473 -58.554768 111.13074 15.157475 163.68834 -29.818546 -123.05103
190000000 -20.257887 -61.350815 -19.21582 -4.5971599 -61.016701 107.20251 -82.396454 101.46348
15.151073 163.13776 -31.899143 -127.2651 -40.311016 66.428925 -60.694916 91.052841
-61.315029 94.237595 -76.259926 107.42465 -20.389097 -61.542736 -19.232729 -4.4710269
-38.00795 66.621437 -60.05743 84.184196 15.149712 163.21436 -30.568832 -127.57406
200000000 -20.328455 -61.574013 -19.226549 -5.01334 -64.640602 135.0529 -77.956535 131.47328
15.145478 162.66928 -32.927059 -133.7146 -40.04277 66.30851 -58.623295 97.583168
-60.924282 105.0245 -71.779289 88.715889 -20.494875 -62.179462 -19.23333 -5.0008335
-37.631611 66.071861 -58.519035 91.319672 15.139629 162.75658 -31.51306 -131.37915
210000000 -20.500799 -62.132908 -19.214895 -5.6315041 -60.877903 112.93606 -81.091209 -53.715729
15.130759 162.18903 -33.838009 -140.19676 -39.205811 66.238075 -60.708908 102.17273
-61.10442 87.764122 -74.173355 126.8018 -20.459158 -62.498959 -19.209623 -5.614634
-37.24155 64.450447 -60.756104 79.424179 15.143915 162.14844 -32.114735 -135.39824
220000000 -20.546267 -62.658714 -19.236219 -6.1360431 -63.731701 105.53155 -72.739983 148.23453
15.122035 161.67274 -34.817753 -147.29858 -38.799976 65.799194 -62.098827 76.75901
-61.268948 97.278542 -74.080719 13.062807 -20.564568 -62.8354 -19.234518 -6.3131242
-36.831043 63.60268 -57.594658 71.863014 15.131707 161.66438 -32.98542 -141.58699
230000000 -20.593195 -62.917458 -19.220148 -6.5963397 -61.458763 91.53183 -79.535202 116.42641
15.112591 161.13063 -35.972122 -154.505 -38.61544 64.013771 -59.242474 108.29144
-58.328758 94.064545 -74.125473 44.399223 -20.635929 -63.111816 -19.220152 -6.6665907
-36.528286 63.928207 -58.308201 87.972931 15.122279 161.11856 -33.965782 -146.80815
240000000 -20.603725 -63.408451 -19.222935 -7.1070728 -63.561558 121.13863 -78.928513 14.303328
15.109433 160.60863 -36.622395 -163.7453 -38.231819 63.47353 -59.045799 95.870651
-58.390381 97.956848 -84.927391 14.456448 -20.627705 -63.731049 -19.220201 -7.2675142
-36.034721 63.276047 -57.898361 75.030846 15.118493 160.5974 -34.854851 -150.84161
250000000 -20.624786 -64.283066 -19.205824 -7.6942587 -59.813217 109.85229 -72.324532 -84.900307
15.100191 160.05852 -37.170013 -171.18231 -37.752995 64.165047 -58.5508 98.150101
-59.180428 100.62803 -80.469482 -81.229538 -20.672474 -64.348778 -19.211758 -7.8323498
-35.675953 61.442375 -60.54253 88.717087 15.109143 160.03932 -35.35384 -157.74477
260000000 -20.702137 -64.207222 -19.233891 -8.1702003 -58.84404 86.595322 -74.344818 29.464231
15.096645 159.48407 -37.763062 172.29521 -37.679676 60.218632 -55.761639 82.927315
-59.903568 112.51772 -73.739227 -123.98008 -20.744745 -65.346298 -19.191269 -8.4633484
-35.618565 62.467941 -56.605 99.855408 15.109294 159.48177 -36.313 -164.41777
270000000 -20.60178 -64.838997 -19.246851 -8.5378227 -59.376339 130.15027 -72.906601 164.35266
15.095923 158.89285 -38.164299 167.55679 -37.507286 62.626167 -55.639717 87.471634
-55.086613 98.594254 -69.653053 44.78701 -20.720837 -64.99398 -19.209572 -8.8319769
-35.140556 60.553547 -58.709873 71.767891 15.104358 158.93906 -36.95715 -172.27869
280000000 -20.661585 -65.439476 -19.254057 -9.0340738 -61.733418 112.13616 -72.046249 -130.2114
15.086411 158.37294 -38.139496 154.6015 -36.879135 60.036415 -57.560276 96.348297
-55.793388 98.34964 -65.286194 161.91125 -20.712988 -65.822296 -19.249584 -9.1698341
-34.962311 58.429367 -55.806129 88.82196 15.095366 158.33772 -37.305279 179.82413
290000000 -20.684357 -65.901665 -19.257572 -9.6216879 -58.431309 116.17775 -69.831444 26.132019
15.07966 157.79175 -37.950871 146.01361 -36.886307 59.013866 -57.120331 86.121613
-60.559872 88.970116 -71.346329 -171.65169 -20.835361 -66.430641 -19.257856 -9.6237793
-34.662056 58.391754 -56.158279 90.523125 15.087306 157.78624 -37.096317 166.99368
300000000 -20.654196 -66.791046 -19.198734 -10.013981 -60.490406 131.15213 -78.816353 -173.18727
15.079629 157.20023 -37.030853 136.51344 -36.628166 58.746197 -57.942848 80.574303
-56.176105 88.056839 -76.823059 105.18769 -20.689285 -67.259605 -19.24967 -10.387568
-34.17878 58.412086 -56.861282 77.98716 15.084579 157.14282 -38.334129 159.94978
310000000 -20.694836 -68.326157 -19.25139 -10.459614 -60.146172 113.97318 -68.49295 -125.78577
15.067879 156.64014 -36.264942 130.61244 -35.993061 56.510414 -59.68726 103.21217
-55.945698 103.59538 -66.049339 -165.82631 -20.776518 -67.543724 -19.259798 -10.656203
-33.947834 57.135796 -55.919094 93.929207 15.076717 156.60049 -37.61301 149.31673
320000000 -20.729824 -68.885231 -19.268547 -11.219935 -58.925613 131.37323 -72.040199 -12.726514
15.066554 156.03123 -35.259609 123.68288 -36.01218 56.123299 -55.505348 91.511772
-55.955112 87.99855 -70.256836 3.3650646 -20.853245 -68.370476 -19.250439 -11.12962
-33.838902 55.589607 -54.686909 91.443436 15.072447 156.08356 -37.350128 140.91473
330000000 -20.747061 -69.296471 -19.244507 -11.514366 -58.176674 113.60466 -65.135223 119.9748
15.06216 155.47031 -34.577255 117.22545 -35.516918 56.887177 -54.393257 94.865547
-53.661175 101.43639 -79.461304 101.51305 -20.82328 -69.387131 -19.237724 -11.712748
-33.559597 56.44434 -54.075809 97.459953 15.06776 155.4077 -36.360115 136.19904
340000000 -20.704617 -70.475807 -19.289814 -11.967701 -55.373367 111.66808 -68.693626 73.309074
15.054752 154.87466 -34.004879 114.33325 -35.433903 57.008301 -57.629391 105.46957
-54.76944 101.36966 -68.807709 -174.67439 -20.735645 -70.444962 -19.295185 -12.170679
-33.145733 54.746181 -55.399498 88.630867 15.065722 154.83789 -35.620476 132.96165
350000000 -20.728783 -70.96756 -19.256866 -12.316944 -58.710201 88.384148 -69.860336 86.014099
15.048496 154.27245 -33.148586 111.67836 -35.043995 53.881432 -55.745663 100.69955
-58.114407 103.11116 -66.125328 137.86655 -20.814692 -71.16716 -19.255198 -12.477902
-33.096569 54.452663 -52.528053 88.063286 15.063684 154.21385 -34.778568 126.12428
360000000 -20.763126 -72.337837 -19.280081 -12.78758 -57.260086 106.71878 -89.22554 -151.49193
15.043447 153.67989 -32.560654 109.91879 -34.773907 53.515419 -56.854225 95.1287
-54.492325 91.440048 -63.737411 129.12657 -20.857582 -72.309929 -19.291473 -12.987985
-32.844009 52.86216 -54.308369 89.5252 15.054664 153.61354 -34.432663 121.89325
370000000 -20.832758 -73.376411 -19.26841 -13.218652 -56.017738 116.47351 -74.918144 -59.518787
15.038883 153.02907 -31.635124 107.5359 -34.702717 52.94466 -55.421013 103.05813
-54.593788 93.368134 -78.903038 141.24448 -20.942337 -73.602287 -19.26963 -13.544103
-32.509338 52.863605 -53.002357 80.168297 15.0535 153.01921 -33.369953 119.06039
380000000 -20.945505 -74.497253 -19.263897 -13.661011 -58.080009 125.06538 -77.035767 148.55292
15.031069 152.43231 -31.138414 106.26382 -34.424984 51.635796 -55.617992 90.719788
-55.170303 93.523033 -77.249947 -153.56532 -20.966183 -74.135712 -19.264326 -14.097728
-32.384457 50.779381 -54.520096 88.263435 15.043075 152.40552 -32.802139 116.22068
390000000 -20.948036 -75.965637 -19.293318 -14.136685 -55.499512 114.19867 -68.199898 83.714546
15.027707 151.84505 -30.44105 104.98038 -34.136845 51.16428 -54.811111 95.834503
-53.747559 105.88827 -73.580139 -108.48225 -20.926174 -75.626602 -19.301964 -14.362462
-32.158051 50.35323 -52.238731 88.811913 15.047323 151.7729 -32.660202 113.54358
400000000 -20.972492 -77.12574 -19.315184 -14.500635 -54.344318 104.89103 -73.001076 119.70304
15.021311 151.20784 -29.712234 103.13367 -33.96603 50.740265 -54.889179 101.89162
-53.246346 88.914421 -69.956841 -75.727325 -21.050074 -76.77758 -19.297636 -14.743489
-31.900618 49.541687 -52.996174 83.54612 15.03415 151.18739 -31.525896 112.00861
410000000 -21.004347 -78.34845 -19.29668 -15.112476 -55.788391 108.37173 -76.731697 -147.32205
15.020591 150.59486 -29.423283 102.94736 -33.875538 49.147793 -55.828281 98.833168
-52.481911 91.830887 -73.26355 -62.181625 -21.013344 -78.135979 -19.296928 -15.299885
-31.705902 48.783066 -55.031647 95.185822 15.038904 150.53555 -31.315517 111.06353
420000000 -21.069799 -80.032471 -19.281246 -15.473148 -55.791668 108.76967 -67.007774 108.12585
15.014324 149.99265 -28.735928 101.66567 -33.629387 47.479465 -54.22805 101.27959
-52.107517 94.406975 -70.431038 160.69351 -21.070957 -79.539238 -19.288563 -15.64844
-31.514408 48.109966 -51.968441 90.122627 15.031689 149.9086 -30.645388 109.10884
430000000 -21.104469 -80.969765 -19.27354 -15.844492 -53.94429 114.66843 -70.693672 110.36826
15.00929 149.38651 -28.19272 100.8424 -33.443104 46.58416 -54.352619 96.537987
-52.274376 97.984314 -70.185654 62.265049 -21.138844 -80.776497 -19.304344 -16.251877
-31.309595 46.558372 -52.202255 86.860481 15.027007 149.29915 -29.967953 107.5237
440000000 -21.102571 -82.198746 -19.285091 -16.08136 -54.477882 118.0394 -80.319069 66.253448
15.008949 148.75571 -27.84654 99.866959 -33.302193 46.542545 -53.598549 100.27966
-52.510098 100.90218 -69.762436 -4.6450019 -21.209856 -82.370743 -19.322977 -16.399015
-31.202415 46.427849 -53.426773 80.278366 15.021384 148.66435 -29.586184 107.51624
450000000 -21.093527 -83.961937 -19.277107 -16.587223 -55.631943 114.65945 -79.363411 -57.925961
15.003295 148.1368 -27.532455 99.521332 -33.032261 44.860744 -52.98616 89.132736
-51.730228 101.01318 -68.136742 70.428658 -21.208931 -84.024117 -19.29525 -17.228521
-30.929102 45.638924 -52.06168 81.886635 15.015342 148.08359 -29.136208 107.74879
460000000 -21.131353 -85.241768 -19.323235 -17.06448 -52.956963 109.77156 -71.72937 160.8006
15.001472 147.50546 -27.1474 99.544365 -32.836102 44.051418 -53.459015 94.850876
-51.183556 94.848671 -84.055801 51.532734 -21.305006 -85.281967 -19.330856 -17.432997
-30.777248 44.264324 -51.919945 81.592491 15.014494 147.40979 -28.597488 106.94607
470000000 -21.216425 -86.911552 -19.35103 -17.502424 -55.054028 107.99284 -72.268234 169.0705
14.991621 146.88165 -26.82711 99.549202 -32.629112 43.625179 -53.482365 95.558968
-51.911781 105.99829 -74.114983 -103.28738 -21.214367 -86.713539 -19.346584 -17.945652
-30.658222 43.574535 -50.914375 87.573158 15.011294 146.82404 -28.35216 105.66802
480000000 -21.208193 -88.476196 -19.332491 -18.002216 -53.091331 115.87122 -70.004669 32.811203
14.990439 146.24657 -26.52533 99.364044 -32.607147 42.31881 -53.398533 100.11181
-50.016827 96.717621 -68.919914 93.847328 -21.349354 -88.483826 -19.353514 -18.274384
-30.571114 42.598194 -51.801598 79.864517 15.000314 146.15964 -27.904774 105.11904
490000000 -21.242599 -89.919624 -19.363312 -18.537632 -53.997158 108.36931 -72.485474 122.08394
14.98367 145.61372 -26.082493 99.030983 -32.352448 41.737263 -52.949417 101.1186
-51.834736 94.673721 -85.611465 -101.23087 -21.401663 -89.717918 -19.346966 -18.769567
-30.290979 42.258739 -51.958012 82.003105 15.005095 145.53842 -27.51005 103.86449
500000000 -21.293831 -91.599686 -19.370081 -18.725555 -52.951435 113.55955 -69.675446 103.76688
14.97937 144.98738 -25.724857 97.933884 -32.223637 41.034275 -51.786659 91.68219
-51.948734 108.61384 -65.777748 124.1242 -21.425068 -91.624847 -19.32184 -18.958031
-30.13563 40.843712 -51.273869 85.139526 15.000875 144.88905 -27.019802 102.79119
510000000 -21.215193 -93.060432 -19.377272 -19.458965 -53.258011 117.04263 -76.315544 157.13582
14.974663 144.3226 -25.41617 97.70977 -32.041504 39.935207 -52.677338 96.319237
-50.365704 100.02815 -63.326561 90.831932 -21.39566 -92.957748 -19.377382 -19.500765
-30.07427 40.124748 -50.721313 88.53875 14.989767 144.28488 -26.708998 102.45438
520000000 -21.309132 -94.686691 -19.356628 -19.66185 -51.368732 110.21252 -76.664642 110.73271
14.97229 143.74596 -25.139977 97.245422 -31.935841 39.198814 -52.54845 93.191917
-51.118744 99.089584 -77.384033 -109.89191 -21.413658 -94.294243 -19.338388 -20.08139
-29.840561 39.646152 -51.786678 85.832214 14.985859 143.61697 -26.47191 102.46099
530000000 -21.294394 -96.257431 -19.369659 -19.995331 -52.581081 105.70372 -74.939613 -156.8746
14.966238 143.07654 -24.808945 97.627319 -31.801193 37.834454 -53.670525 95.553741
-51.068859 96.075562 -81.7519 154.31802 -21.418299 -96.511353 -19.360949 -20.404724
-29.657677 38.285347 -50.792297 90.584633 14.984762 142.96992 -26.123837 102.59221
540000000 -21.347237 -97.94075 -19.370773 -20.505743 -52.382462 107.86475 -71.538612 45.598698
14.962085 142.44203 -24.55027 96.91143 -31.643196 37.043438 -52.553772 98.990623
-50.126034 97.413162 -67.495377 131.93462 -21.497519 -97.817337 -19.341694 -20.853598
-29.537308 37.367619 -50.743702 86.120361 14.979554 142.37917 -25.776516 101.92222
550000000 -21.33935 -99.289154 -19.383699 -20.982862 -51.588043 110.08727 -75.570534 -159.52689
14.955568 141.81403 -24.226959 96.322243 -31.463943 36.676956 -52.068092 97.334961
-50.254383 99.314354 -66.79155 122.99352 -21.494844 -99.352539 -19.360567 -21.332739
-29.471109 36.313141 -51.030228 84.596344 14.97216 141.69238 -25.524967 100.82416
560000000 -21.300062 -101.09444 -19.395123 -21.466885 -51.801998 113.1873 -69.504883 147.11444
