!Mini-Circuits Laboratory
!S-Parameters
!Model: MPGA-105+
!Run / Lot / Date Code: NA / BP384P001-05 / 1348
!Fixture: NA; TB-561+
!AUTO PORT EXTENSION DONE: PORT<1>=113.35ps; PORT<2>=112.76ps; PORT<3>=112.16ps; PORT<4>=112.11ps
!Network Analyzer: PNA-X N5242A - 423 4 ports;  Serial number: 71256
!Date: 2/15/2014
!S/N: Unit# 1
!Correction: S11(Full 4 Port(1,2,3,4)) 
!S12(Full 4 Port(1,2,3,4)) 
!S13(Full 4 Port(1,2,3,4)) 
!S14(Full 4 Port(1,2,3,4)) 
!S21(Full 4 Port(1,2,3,4)) 
!S22(Full 4 Port(1,2,3,4)) 
!S23(Full 4 Port(1,2,3,4)) 
!S24(Full 4 Port(1,2,3,4)) 
!S31(Full 4 Port(1,2,3,4)) 
!S32(Full 4 Port(1,2,3,4)) 
!S33(Full 4 Port(1,2,3,4)) 
!S34(Full 4 Port(1,2,3,4)) 
!S41(Full 4 Port(1,2,3,4)) 
!S42(Full 4 Port(1,2,3,4)) 
!S43(Full 4 Port(1,2,3,4)) 
!S44(Full 4 Port(1,2,3,4)) 
!S4P File: Measurements: <S11,S12,S13,S14>,
!<S21,S22,S23,S24>,
!<S31,S32,S33,S34>,
!<S41,S42,S43,S44>:
# Hz S  dB   R 50
10000000 -2.7705379 -40.459637 -22.93413 47.395313 -39.399979 92.244858 -47.073822 109.11828
20.1103 158.23419 -3.92558 -43.898811 -29.898506 97.875977 -37.67099 115.36113
-50.852749 5.0489302 -57.480522 -74.202209 -2.6564617 -39.963951 -22.04562 51.389584
-39.829063 -10.492336 -44.100842 -73.935631 20.166565 159.00893 -3.833617 -42.768005
20000000 -5.9902554 -63.237049 -19.695133 31.058376 -58.682747 -73.022507 -64.078644 -57.068634
17.928841 153.4144 -7.0426908 -68.9468 -65.366051 -3.1759923 -64.221603 -82.724052
-57.417477 -77.90477 -57.285328 45.657402 -5.889874 -63.146481 -19.620373 31.143787
-61.611446 76.618507 -71.851707 -162.384 17.959612 153.33525 -6.9675469 -68.897133
30000000 -8.6939688 -75.33876 -18.946301 21.132437 -76.11441 -78.167931 -64.653557 36.094189
16.501883 154.43285 -9.650053 -84.007584 -55.102493 74.687859 -74.116409 -132.78168
-64.180649 -160.65106 -60.741863 -20.863081 -8.6268101 -75.68679 -18.930437 21.219982
-53.137611 67.396317 -64.193344 -127.08272 16.519125 154.18268 -9.5839634 -84.275909
40000000 -10.83171 -83.16169 -18.62867 15.192495 -69.109756 -163.81647 -63.48 60.09103
15.669623 156.57137 -11.699018 -94.387741 -52.002113 72.45636 -67.339241 51.07502
-66.004768 58.09882 -66.161041 -75.488663 -10.781784 -83.520782 -18.568796 15.345629
-50.706383 59.551846 -63.037678 167.66356 15.66708 156.39493 -11.673031 -94.670105
50000000 -12.586789 -87.762764 -18.503885 11.70319 -58.547203 7.8678327 -59.390087 36.026485
15.17028 158.59091 -13.313927 -102.3424 -49.03521 61.022072 -60.560528 40.726906
-57.806664 13.08377 -61.472706 176.98596 -12.430097 -89.075867 -18.375732 11.633835
-47.233795 57.723194 -58.246853 169.8082 15.171411 158.40764 -13.222907 -102.93636
60000000 -13.840042 -94.117905 -18.273149 8.9769745 -55.893681 -101.0504 -59.186298 -98.579224
14.847683 160.11604 -14.480057 -110.01119 -50.217064 63.692688 -70.949272 61.731491
-63.925674 65.027237 -71.483818 -46.023132 -13.913087 -94.063995 -18.346142 9.0471878
-50.848278 78.726173 -56.534454 72.304131 14.832292 159.95726 -14.397728 -109.99907
70000000 -15.211382 -96.638046 -18.290457 6.4947815 -65.620834 150.15837 -66.085716 -151.69284
14.640496 161.31178 -15.708166 -115.52327 -50.146984 66.571426 -77.458504 44.938847
-67.814781 -178.2234 -76.198906 -158.51279 -15.155351 -97.573105 -18.326105 6.6906905
-46.229992 67.23082 -74.043663 68.565392 14.623094 161.23198 -15.549606 -116.16552
80000000 -16.232487 -99.689293 -18.270161 4.7081294 -70.759346 119.06474 -80.073563 11.349778
14.499272 162.0874 -16.617884 -121.12584 -48.328617 69.575798 -77.180801 117.90348
-68.765884 119.24442 -67.247787 57.275215 -16.263466 -100.26081 -18.264463 4.6695228
-45.276367 66.866058 -61.186966 91.912521 14.477442 162.06982 -16.490419 -121.61024
90000000 -17.18549 -102.24804 -18.264534 3.3463523 -67.713264 -157.06697 -67.554482 -92.127968
14.400963 162.6288 -17.430344 -126.10864 -47.363285 70.955635 -73.09024 140.38565
-65.878769 82.70153 -76.925545 88.329239 -17.141973 -103.15067 -18.232912 3.0907824
-45.008076 68.894829 -63.176216 56.24773 14.375241 162.63417 -17.229822 -126.63176
100000000 -18.059147 -104.57906 -18.23642 2.085959 -76.035599 29.618114 -67.112869 -34.931393
14.324876 162.95201 -18.16968 -130.99977 -46.021679 67.135612 -68.588577 51.093639
-67.067039 67.062813 -74.384201 88.555161 -17.958923 -105.68881 -18.201826 1.9259092
-44.14962 66.776215 -61.618103 99.64135 14.302108 162.95663 -17.927361 -131.47397
110000000 -18.825806 -107.10823 -18.218504 0.73890972 -67.526657 61.111061 -78.010742 -84.920448
14.273458 163.0757 -18.809679 -135.95195 -45.630741 68.865761 -66.955635 103.74361
-69.026154 117.49924 -81.004387 59.496002 -18.810238 -108.22285 -18.194803 0.76993316
-43.467117 69.485008 -62.540688 119.15838 14.253615 163.10652 -18.572346 -136.21121
120000000 -19.494898 -109.35988 -18.19463 -0.40846699 -72.240936 114.44674 -77.963333 -73.557205
14.230779 163.1275 -19.358488 -140.47371 -44.5644 69.081467 -67.880959 90.328682
-63.208424 90.302299 -72.621201 177.55179 -19.504068 -111.01012 -18.182692 -0.34538093
-42.818523 66.976204 -62.011246 85.678833 14.202149 163.11601 -19.051136 -140.84761
130000000 -20.133879 -111.73235 -18.221956 -0.91601229 -58.953262 96.531197 -65.336021 69.682892
14.200948 163.09889 -19.857069 -145.18628 -43.661491 69.24971 -66.710861 85.280861
-62.476063 90.437675 -69.495529 -92.656113 -20.117149 -113.63419 -18.185295 -1.3738161
-42.028099 67.577454 -59.360172 74.711243 14.165393 163.1524 -19.452036 -145.37689
140000000 -20.721972 -114.58402 -18.195595 -2.3150506 -61.942463 109.22244 -74.438103 47.844372
14.165175 162.9375 -20.174517 -150.25174 -43.682255 68.974113 -62.626724 101.23022
-62.350319 87.986549 -76.676544 -84.329536 -20.782194 -115.88323 -18.186737 -2.1584127
-41.350998 68.307198 -62.670513 81.674042 14.1411 162.93153 -19.86788 -149.5688
150000000 -21.21386 -117.18534 -18.181511 -3.0980923 -62.131809 107.07589 -76.310524 -159.90039
14.137835 162.70959 -20.462301 -155.24313 -43.010326 66.380531 -64.914833 110.07436
-60.404102 102.18687 -74.612595 -131.51987 -21.308346 -118.21175 -18.190577 -2.9521768
-40.879086 67.834076 -61.882282 87.79892 14.110314 162.81575 -20.147388 -153.94159
160000000 -21.773706 -119.8329 -18.187849 -4.056706 -63.497204 109.50939 -79.1735 -171.43736
14.118161 162.47713 -20.640739 -159.51967 -42.202229 67.05265 -62.767323 90.145012
-60.558041 94.220787 -75.531036 -174.63647 -21.784035 -121.44164 -18.165882 -3.9757972
-40.517025 67.13324 -60.512917 64.856232 14.083983 162.5433 -20.320072 -158.58208
170000000 -22.211998 -123.37703 -18.18128 -4.808907 -64.709557 111.00316 -75.868431 62.517513
14.101608 162.18256 -20.770197 -164.36935 -41.814659 66.289894 -61.37056 97.946793
-59.42905 94.223083 -75.943703 27.207712 -22.218937 -124.39915 -18.168442 -4.8052034
-39.783051 67.256973 -60.758823 90.468361 14.07185 162.26437 -20.508823 -162.41161
180000000 -22.626392 -125.97321 -18.199203 -5.5097065 -63.938969 109.95956 -72.263031 24.621391
14.086423 161.84689 -20.806101 -168.09807 -41.27729 65.628304 -59.635208 102.40116
-61.472637 95.584198 -73.00518 141.85826 -22.645872 -127.53547 -18.176628 -5.4679179
-39.250854 65.239197 -59.989056 77.787277 14.05514 161.91795 -20.592142 -166.39119
190000000 -22.921762 -129.46146 -18.175014 -6.220336 -63.74168 85.064423 -73.161133 26.447887
14.073733 161.44833 -20.81287 -172.50813 -40.915909 65.473755 -58.897465 80.586609
-61.776306 105.61588 -67.163567 35.144779 -22.986324 -130.61038 -18.178879 -6.1643291
-38.903297 64.629356 -59.269592 83.420403 14.043528 161.54346 -20.553595 -170.13805
200000000 -23.223135 -132.29498 -18.191622 -7.0066056 -61.186653 102.5966 -76.622665 -102.91579
14.064408 161.05313 -20.737349 -176.22388 -40.339237 64.471909 -59.469109 91.217682
-61.414467 95.672134 -78.094994 -175.54132 -23.252439 -133.84477 -18.187918 -7.011044
-38.375183 64.237778 -59.697102 99.616592 14.031711 161.15775 -20.54846 -173.42162
210000000 -23.39023 -137.12329 -18.207064 -7.6748319 -63.218323 96.551834 -69.339462 59.22007
14.049238 160.63995 -20.611698 -179.81046 -40.073704 64.495926 -58.612537 95.191101
-57.392029 79.842949 -75.699677 112.67906 -23.502375 -136.496 -18.168674 -7.7601433
-38.140388 63.833481 -58.701283 97.485527 14.03427 160.61591 -20.531898 -176.44698
220000000 -23.525558 -140.28635 -18.211281 -8.4263849 -61.306309 110.09424 -77.206444 74.655678
14.040446 160.2108 -20.452932 176.92245 -39.887989 62.572941 -59.94067 88.011978
-59.048828 94.585411 -69.444473 120.72428 -23.726797 -139.94322 -18.179365 -8.6027317
-37.460136 63.425022 -58.921867 86.77832 14.023748 160.20457 -20.39979 -179.6636
230000000 -23.678053 -143.46823 -18.223127 -9.0544062 -62.066982 92.753212 -75.084183 -82.12989
14.030352 159.73354 -20.371902 174.05162 -39.508808 62.261143 -58.838528 100.23695
-59.230225 87.623291 -71.848289 -2.1356447 -23.94964 -143.86024 -18.171232 -9.0589447
-37.445187 62.85651 -55.523685 92.762459 14.01168 159.72423 -20.322981 177.15916
240000000 -23.768955 -146.19908 -18.211792 -9.6968193 -59.974159 99.029945 -66.536194 -169.39807
14.024873 159.24329 -20.200741 171.32832 -39.014126 61.902546 -60.446312 100.86111
-57.911537 84.823425 -69.94677 -29.018444 -24.048759 -146.96895 -18.201031 -9.6660433
-36.892525 61.068222 -55.749233 83.071541 14.007624 159.24501 -20.240326 174.90857
250000000 -23.686434 -149.62753 -18.208801 -10.38009 -60.777245 120.08204 -74.017799 156.70097
14.013566 158.75287 -20.023834 169.21407 -38.869884 60.27066 -58.051449 89.247726
-56.94767 99.882149 -71.012444 -130.59892 -24.083906 -150.18326 -18.180519 -10.398612
-36.655651 61.358028 -56.940517 90.554749 13.995674 158.74809 -20.094299 172.58443
260000000 -23.912779 -152.85143 -18.184214 -10.891465 -57.620266 103.94785 -87.742805 -82.592323
14.011697 158.22385 -19.852942 166.08221 -38.395824 60.272751 -58.635628 89.808571
-58.415321 105.73785 -74.330521 -162.97353 -24.157085 -153.51837 -18.157551 -11.184952
-36.329769 60.242008 -58.096165 84.949669 13.997966 158.21843 -19.998934 170.04968
270000000 -23.913885 -154.80911 -18.216379 -11.385402 -56.586342 108.78845 -71.898293 124.93578
14.010878 157.66899 -19.802345 164.83792 -37.750343 58.78397 -55.514042 88.326706
-56.042904 83.818169 -79.368797 -2.3879383 -24.242018 -156.02748 -18.202959 -11.917058
-36.128769 58.214085 -54.80788 100.04053 13.992302 157.73529 -19.861145 168.10912
280000000 -23.827101 -157.47812 -18.240923 -12.244684 -58.916874 108.00558 -77.633316 -127.22017
14.004042 157.19998 -19.615635 162.66002 -37.727737 61.447819 -58.015675 101.34296
-56.9842 92.411835 -76.039085 -75.103439 -24.278954 -159.52309 -18.189589 -12.447117
-35.981159 58.70295 -54.496952 88.283424 13.985062 157.17534 -19.714426 166.39645
290000000 -23.864069 -160.08798 -18.201931 -12.541328 -59.495464 118.07329 -89.645309 -155.21571
13.999638 156.6611 -19.493042 160.4169 -37.614941 57.830181 -58.048168 86.0644
-57.706043 88.82058 -68.116692 108.0415 -24.247999 -163.47202 -18.197805 -12.787468
-35.463024 57.07716 -55.529243 83.086288 13.97803 156.66286 -19.557436 163.93912
300000000 -23.781654 -161.66251 -18.229723 -13.391918 -59.238712 93.672966 -69.927643 -169.8354
13.996926 156.10458 -19.369083 158.46555 -37.291687 56.089245 -57.226997 92.666512
-55.130058 83.855118 -67.265457 -156.33614 -24.176241 -164.22859 -18.214947 -13.55544
-35.061394 56.744469 -54.277336 84.040314 13.977386 156.05409 -19.549219 162.10321
310000000 -23.700342 -163.71251 -18.241993 -13.985365 -59.002609 95.68692 -69.479019 -99.533096
13.984969 155.56914 -19.204819 156.67053 -36.935513 56.537853 -57.813541 88.734558
-54.311264 88.595581 -65.576988 113.48975 -24.185762 -167.72485 -18.214657 -14.057112
-34.72641 56.049206 -55.69838 82.953987 13.969472 155.55701 -19.390799 160.53554
320000000 -23.706411 -166.35721 -18.232725 -14.513438 -57.474838 89.326012 -67.528732 107.49651
13.986421 155.00681 -19.065786 154.95201 -36.823631 56.869785 -56.158878 105.85361
-54.075474 83.160591 -75.375282 -18.28644 -24.15521 -170.47646 -18.20661 -14.637193
-34.573769 55.216175 -54.744316 78.244774 13.966451 155.06158 -19.296116 158.13893
330000000 -23.707619 -168.17329 -18.273029 -15.076385 -57.202843 103.05927 -81.848137 17.968603
13.9835 154.4785 -19.004929 152.96144 -36.507271 55.887939 -56.203934 99.02552
-53.965858 95.260063 -70.144974 73.568878 -23.932751 -172.08575 -18.2295 -15.399331
-34.364491 54.828144 -53.384121 75.113747 13.963964 154.41675 -19.123323 156.78876
340000000 -23.597593 -169.44016 -18.268343 -15.747886 -57.008018 97.563759 -69.29113 -109.60289
13.980616 153.89458 -18.899467 151.73103 -36.077312 54.552158 -54.974445 94.559441
-54.346256 85.525307 -75.401421 -129.48944 -23.820051 -173.20757 -18.244238 -16.086119
-34.122692 53.348621 -53.412525 74.545029 13.96235 153.88814 -18.98023 155.49689
350000000 -23.727718 -170.9321 -18.287809 -16.271799 -55.429012 104.16517 -76.716583 -115.35011
13.975829 153.34204 -18.791491 149.74959 -35.795609 53.989017 -54.905354 79.511467
-53.283226 88.339661 -69.759064 28.244265 -23.733337 -175.54559 -18.252033 -16.456516
-33.648815 52.40596 -52.439434 81.221458 13.959765 153.2657 -18.790699 153.32216
360000000 -23.590073 -172.30884 -18.262016 -16.937931 -55.664349 93.024483 -76.411331 164.68211
13.97086 152.76396 -18.68959 148.53148 -35.702709 51.932983 -56.456913 97.683441
-55.030899 92.450905 -77.913193 87.73098 -23.642998 -176.71184 -18.263014 -17.153702
-33.724548 52.197033 -53.669151 81.402702 13.955831 152.70575 -18.714867 151.73904
370000000 -23.589012 -173.88751 -18.269806 -17.35195 -57.63892 93.56514 -67.586998 160.86922
13.96979 152.15382 -18.582317 146.71019 -35.539204 51.395267 -53.957363 88.247536
-52.284573 92.441887 -74.820091 118.5453 -23.456856 -178.53409 -18.237617 -17.736286
-33.476425 51.228092 -52.069061 83.841316 13.953862 152.14601 -18.560369 149.93585
380000000 -23.508629 -175.38333 -18.292215 -17.931911 -56.52042 102.71545 -67.120064 118.68969
13.967202 151.57326 -18.482317 145.53499 -35.264755 50.652618 -55.083996 89.200432
-54.052555 86.32106 -72.569458 166.22073 -23.483019 -179.29054 -18.236118 -18.409082
-33.208149 50.141312 -53.976921 79.15004 13.95087 151.55968 -18.503218 148.26923
390000000 -23.456289 -177.06703 -18.297026 -18.53915 -56.513077 95.62072 -82.089081 -174.37947
13.965827 151.0183 -18.363131 143.69336 -34.951195 49.077579 -53.797699 92.779518
-52.435509 83.162392 -80.173431 79.429214 -23.383652 179.55386 -18.263227 -18.701674
-33.004913 50.05051 -52.659264 79.73941 13.954775 150.94482 -18.442383 146.95543
400000000 -23.38648 -178.43483 -18.330294 -19.122484 -55.687359 93.327438 -77.48024 55.320789
13.961767 150.40767 -18.224743 142.29526 -34.950241 49.229248 -54.155163 85.182587
-50.961037 91.79863 -89.953896 -143.89584 -23.250679 177.93979 -18.260115 -19.368034
-32.795422 48.570259 -51.937626 69.175591 13.946168 150.38919 -18.243408 145.21246
410000000 -23.450659 -179.28308 -18.302855 -19.683079 -55.885723 101.38402 -70.674316 -173.63512
13.965518 149.8163 -18.159958 140.84416 -34.792671 47.396912 -54.416084 86.102356
-52.729523 91.373283 -68.373291 138.84096 -23.148031 177.44055 -18.26491 -20.166492
-32.660549 47.665684 -50.931 77.609222 13.953772 149.75305 -18.172485 143.98303
420000000 -23.373653 179.22626 -18.300131 -20.214956 -55.107613 96.424637 -76.57206 68.634071
13.962257 149.22714 -18.066887 139.12323 -34.407742 46.36718 -52.908054 84.903503
-51.86301 93.667862 -73.154526 169.60811 -23.095047 176.48401 -18.285849 -20.568953
-32.520134 46.96867 -52.248547 81.621544 13.949084 149.14818 -18.053577 142.4991
430000000 -23.460075 177.72818 -18.3277 -20.771162 -53.110619 87.893188 -85.478813 -140.98184
13.962103 148.63614 -17.942625 137.77809 -34.359676 46.590683 -53.057751 92.793816
-52.195469 91.438095 -69.810654 174.85834 -23.076042 174.91173 -18.311741 -21.094816
-32.043587 45.908871 -51.837116 83.786026 13.947814 148.56976 -17.897875 140.939
440000000 -23.435892 176.9653 -18.311337 -21.319218 -53.764 94.61908 -70.561005 173.07082
13.965137 148.00847 -17.886215 136.41281 -34.096058 45.881279 -53.309353 84.144073
-52.468113 87.262352 -75.262543 20.517555 -22.93536 173.86218 -18.291206 -21.559059
-32.014809 45.264 -52.061558 80.545807 13.944331 147.94501 -17.796587 139.8454
450000000 -23.312605 176.02487 -18.325087 -21.973612 -53.666706 93.826141 -73.23098 -167.0603
13.962555 147.38858 -17.771835 135.48747 -33.768776 44.701275 -54.294388 84.649826
-51.859077 81.170685 -73.02504 101.58076 -22.860271 172.18561 -18.31007 -22.211037
-31.897371 44.777561 -51.778847 73.537933 13.941496 147.3521 -17.663126 138.64285
460000000 -23.335415 174.55495 -18.334404 -22.459562 -55.037048 97.587906 -74.045464 -147.35027
13.963371 146.76555 -17.682915 134.25241 -33.701672 43.783779 -52.035137 81.585609
-51.765644 80.538963 -67.088516 105.5695 -22.866177 171.58572 -18.302402 -22.724398
-31.638916 44.134655 -50.734028 76.425865 13.943789 146.73891 -17.572327 137.44812
470000000 -23.236769 172.92126 -18.337986 -22.882771 -53.834362 97.966438 -77.271271 107.2645
13.957335 146.16606 -17.544842 133.10478 -33.569962 42.135952 -52.80611 90.124397
-51.96909 93.86956 -80.373978 140.51022 -22.866669 170.49808 -18.30257 -23.269634
-31.518703 43.454151 -50.738018 77.906288 13.946083 146.14987 -17.514519 136.22411
480000000 -23.172899 171.87167 -18.36417 -23.436357 -54.483868 96.653069 -76.784584 -166.02776
13.961143 145.53352 -17.43499 132.18422 -33.426697 41.198299 -53.871223 88.710724
-51.185276 87.170006 -71.528625 110.3772 -22.83569 168.80479 -18.346115 -23.747446
-31.23473 41.997898 -51.481178 77.827797 13.940207 145.51711 -17.366566 135.06287
490000000 -23.111563 171.00401 -18.364573 -23.960926 -53.309975 98.603111 -66.632423 114.29301
13.959271 144.92072 -17.28256 130.91756 -33.197266 40.8535 -52.624043 85.955803
-51.793053 81.043709 -83.5028 161.3181 -22.832729 167.74409 -18.315895 -24.404528
-31.176208 41.76833 -50.53944 74.024483 13.950221 144.90648 -17.331245 134.09158
500000000 -23.057617 169.16496 -18.376745 -24.648434 -53.448402 102.86785 -71.887772 179.80244
13.95769 144.31389 -17.184132 129.50266 -33.082584 40.289223 -52.236935 80.534027
-50.644073 86.186394 -81.301376 -104.45631 -22.754862 166.33731 -18.325897 -25.031315
-30.948122 40.916542 -50.619541 75.727058 13.948208 144.29153 -17.200079 132.78818
510000000 -23.059685 168.63286 -18.351929 -25.134304 -52.637722 92.948631 -70.369507 -128.61313
13.96241 143.63472 -17.07408 128.20518 -32.884495 38.718292 -52.276291 92.298935
-51.221802 89.076866 -71.491585 -143.41573 -22.747381 165.37999 -18.366146 -25.51816
-30.863272 40.320156 -50.167641 74.009285 13.943878 143.6523 -17.139002 131.84467
520000000 -22.987789 167.05482 -18.361389 -25.870106 -53.342113 104.70162 -69.421997 -88.051636
13.960758 143.06436 -16.974075 127.45133 -32.787415 38.297459 -51.998932 82.451248
-50.475525 87.150391 -73.149124 134.26839 -22.79142 163.70064 -18.369453 -26.007929
-30.728409 38.553616 -50.146889 77.891403 13.946298 143.01971 -17.044188 131.00206
530000000 -22.942852 165.58789 -18.399879 -26.281609 -52.160706 97.160881 -72.162491 144.67473
13.95857 142.40056 -16.839512 126.57416 -32.453308 36.693989 -51.221252 83.28553
-49.512085 86.239578 -68.047844 136.77817 -22.665068 162.72105 -18.372435 -26.592482
-30.509382 38.7276 -49.880814 80.904617 13.946523 142.38593 -16.939535 130.18214
540000000 -22.855875 164.09714 -18.379536 -26.762604 -52.214554 96.951218 -75.305702 61.670338
13.960375 141.78877 -16.734901 125.42182 -32.379776 35.92395 -52.176311 80.117218
-49.596901 82.574203 -69.106102 -173.81471 -22.639179 160.72536 -18.359333 -27.288046
-30.391552 37.14603 -50.45245 72.770409 13.947465 141.80788 -16.836332 129.14046
550000000 -22.807072 162.95885 -18.380024 -27.257912 -52.221256 91.899063 -65.454788 155.48885
13.958747 141.16306 -16.633123 124.39071 -32.322289 35.484783 -52.140961 82.780533
-49.698349 90.191292 -73.030861 164.33115 -22.619602 159.58966 -18.400743 -27.746393
-30.234564 35.603603 -50.244652 72.66317 13.946182 141.10963 -16.763998 128.27013
560000000 -22.6994 162.21458 -18.430317 -27.766394 -52.440208 98.105331 -67.092262 119.6831
