!Mini-Circuits Laboratory
!S-Parameters
!Model: MPGA-105+
!Run / Lot / Date Code: NA / BP384P001-05 / 1348
!Fixture: NA; TB-561+
!AUTO PORT EXTENSION DONE: PORT<1>=113.35ps; PORT<2>=112.76ps; PORT<3>=112.16ps; PORT<4>=112.11ps
!Network Analyzer: PNA-X N5242A - 423 4 ports;  Serial number: 71256
!Date: 2/15/2014
!S/N: Unit# 1
!Correction: S11(Full 4 Port(1,2,3,4)) 
!S12(Full 4 Port(1,2,3,4)) 
!S13(Full 4 Port(1,2,3,4)) 
!S14(Full 4 Port(1,2,3,4)) 
!S21(Full 4 Port(1,2,3,4)) 
!S22(Full 4 Port(1,2,3,4)) 
!S23(Full 4 Port(1,2,3,4)) 
!S24(Full 4 Port(1,2,3,4)) 
!S31(Full 4 Port(1,2,3,4)) 
!S32(Full 4 Port(1,2,3,4)) 
!S33(Full 4 Port(1,2,3,4)) 
!S34(Full 4 Port(1,2,3,4)) 
!S41(Full 4 Port(1,2,3,4)) 
!S42(Full 4 Port(1,2,3,4)) 
!S43(Full 4 Port(1,2,3,4)) 
!S44(Full 4 Port(1,2,3,4)) 
!S4P File: Measurements: <S11,S12,S13,S14>,
!<S21,S22,S23,S24>,
!<S31,S32,S33,S34>,
!<S41,S42,S43,S44>:
# Hz S  dB   R 50
10000000 -2.8202147 -39.743073 -22.247795 47.791599 -41.91124 -33.771179 -48.725262 -8.8231859
20.152285 158.02788 -3.9802351 -42.764412 -33.028378 -25.271366 -39.489185 -4.186017
-42.031231 33.40691 -49.329453 -0.33934686 -2.5547984 -40.84919 -22.427353 47.486004
-32.230091 28.897135 -39.190426 -5.3864446 20.194542 159.13258 -3.6317883 -43.565628
20000000 -6.0017691 -63.347321 -19.67375 30.436949 -64.563225 -162.7426 -64.973419 -141.29982
17.962883 153.39037 -7.0615363 -69.257393 -60.243164 116.2224 -60.791973 -166.81882
-77.612419 -58.05365 -63.066547 74.76619 -5.9247589 -63.432446 -19.608229 30.661631
-54.745609 87.02565 -62.606339 -109.58798 18.00433 153.34422 -6.995224 -69.21608
30000000 -8.7046404 -75.532806 -18.920393 21.008753 -69.787384 -14.193521 -71.894478 17.549284
16.537178 154.43748 -9.673007 -84.243515 -54.478992 51.750576 -75.074364 114.20921
-91.827644 130.51036 -67.505692 64.740356 -8.6612272 -75.881912 -18.906958 20.96689
-50.495388 69.258057 -70.931084 -64.857849 16.565931 154.22935 -9.6199942 -84.652435
40000000 -10.846592 -83.469185 -18.603884 15.46499 -69.216385 78.269012 -65.476738 -61.486691
15.705867 156.58676 -11.690826 -94.779312 -53.995552 68.699379 -76.775162 -131.70168
-63.497948 50.091991 -61.322262 -175.38046 -10.81157 -83.728233 -18.617386 15.348697
-51.191872 62.617638 -68.247498 17.987007 15.718126 156.46231 -11.655526 -95.087135
50000000 -12.625259 -88.236176 -18.432329 11.031563 -61.440117 -140.10283 -58.824272 -83.468376
15.208231 158.61031 -13.302815 -102.33888 -54.522663 65.156471 -62.595139 -92.970192
-57.889145 53.087605 -61.868397 -82.345421 -12.47957 -89.59037 -18.493198 10.681099
-48.380878 57.116497 -62.300846 -100.84239 15.225469 158.49451 -13.197679 -103.42814
60000000 -13.832316 -94.48838 -18.458702 8.6527214 -55.206703 113.11068 -55.360535 127.61082
14.885931 160.15022 -14.452363 -110.49741 -50.102116 73.126595 -65.013145 -171.72169
-65.847008 153.04884 -68.082237 121.47322 -13.951154 -94.434372 -18.40901 8.9228201
-51.70438 69.696205 -56.414581 136.6732 14.890025 160.02158 -14.513832 -110.64496
70000000 -15.222242 -97.22126 -18.327049 6.5220485 -61.519176 106.95802 -75.524719 127.52955
14.680043 161.34497 -15.692174 -116.15387 -48.250118 74.559029 -65.91478 117.85674
-68.665596 114.64024 -71.306847 160.62999 -15.216496 -97.836395 -18.323313 6.514709
-47.044434 70.971367 -66.71402 98.259056 14.680091 161.29237 -15.570321 -116.61285
80000000 -16.27339 -100.19657 -18.314812 4.7489758 -69.133781 118.16032 -73.410187 142.57831
14.538382 162.11391 -16.58713 -121.71878 -47.695602 73.827232 -64.067917 119.71918
-69.874947 149.32805 -72.301392 -150.60666 -16.306238 -100.75542 -18.31159 4.799602
-45.484756 68.835197 -60.754349 113.17217 14.539472 162.12233 -16.49888 -122.05245
90000000 -17.195162 -102.93769 -18.282373 3.1505418 -67.458405 158.06689 -73.569 152.23633
14.441819 162.65123 -17.38418 -126.75722 -46.947342 74.608368 -62.892002 108.86592
-63.290409 90.026337 -71.859398 172.63066 -17.193033 -103.50925 -18.289419 3.4970989
-45.282219 67.514313 -63.513218 112.45175 14.436228 162.68309 -17.275911 -127.02966
100000000 -18.071402 -105.17658 -18.256334 1.8272276 -69.148895 160.33519 -69.73539 -148.43137
14.365682 162.98172 -18.104017 -131.46939 -46.370316 71.995171 -70.231941 142.90816
-63.40749 82.040527 -77.668037 -152.9675 -17.999683 -106.12763 -18.269251 1.8642142
-44.036983 67.610817 -68.57933 104.62366 14.36368 163.00349 -17.926727 -132.00572
110000000 -18.832968 -107.81084 -18.259485 0.71054471 -63.189968 125.10175 -86.497795 -126.64425
14.315505 163.09888 -18.739542 -136.44844 -45.450123 69.894661 -64.129517 94.279015
-69.126549 108.32883 -67.876884 152.25316 -18.832302 -108.37199 -18.242828 0.71501863
-43.093258 68.775993 -64.136269 87.846458 14.316469 163.15024 -18.552876 -136.69243
120000000 -19.507658 -110.12156 -18.266283 -0.27601695 -62.07848 105.19173 -76.703514 -29.669653
14.272 163.15002 -19.296793 -140.93382 -44.64867 71.419495 -67.725487 99.471138
-67.974037 60.302223 -86.542915 173.95074 -19.537016 -111.29951 -18.233599 -0.37847707
-42.785778 68.668549 -60.893082 101.00974 14.264798 163.15723 -19.038309 -141.35709
130000000 -20.054445 -112.24558 -18.269489 -1.4418176 -69.539421 -7.8058281 -62.180088 -124.16989
14.240972 163.11975 -19.759567 -145.56174 -43.876747 67.89344 -64.346687 99.555809
-59.617882 74.18943 -77.387466 -47.125847 -20.152164 -113.90697 -18.232983 -1.4435945
-42.239182 68.099281 -60.363888 103.5686 14.227789 163.18845 -19.42535 -145.55363
140000000 -20.748537 -115.48298 -18.226831 -2.2342467 -66.321259 116.6297 -71.298019 37.496452
14.206458 162.95137 -20.094467 -150.86418 -43.355495 68.356766 -64.283722 72.358253
-62.01067 84.90419 -77.875923 -27.458391 -20.818491 -115.99772 -18.224997 -2.3262892
-41.249966 67.774971 -62.681061 82.887184 14.204223 162.96695 -19.842358 -149.78456
150000000 -21.221727 -118.12639 -18.218966 -3.1431091 -63.38007 109.19292 -77.091652 71.231194
14.17736 162.73323 -20.35578 -155.74451 -42.691334 67.204803 -60.49028 90.264595
-60.230919 94.849304 -74.26252 -8.892065 -21.34339 -118.51646 -18.20504 -3.1668136
-41.027397 67.508514 -59.470676 90.902428 14.173621 162.84564 -20.147209 -154.1364
160000000 -21.754765 -120.77258 -18.219551 -3.8621919 -63.705727 83.639099 -80.57132 155.35539
14.161041 162.49603 -20.534895 -160.05473 -42.269413 68.66983 -62.723343 119.0178
-62.993736 95.514954 -74.544914 6.8603559 -21.836378 -121.77431 -18.223442 -4.0848289
-40.540455 68.552917 -59.018253 91.905022 14.147207 162.57281 -20.315395 -158.74832
170000000 -22.22263 -124.42231 -18.233507 -4.6334252 -63.201317 93.659866 -70.373863 81.919777
14.142453 162.19257 -20.664278 -164.62692 -41.678986 66.146545 -59.640251 95.847649
-59.184277 100.61164 -89.651344 132.68953 -22.242922 -124.32492 -18.220045 -4.77425
-39.754807 66.886597 -58.455326 79.52327 14.134233 162.28461 -20.490328 -162.7482
180000000 -22.589008 -127.20145 -18.223314 -5.3174577 -63.312336 103.46441 -76.765602 -65.500237
14.128347 161.86969 -20.705688 -168.457 -41.483486 67.131805 -64.041321 98.811295
-59.555481 107.30405 -72.888489 71.444633 -22.657875 -127.62444 -18.215055 -5.5031748
-39.253483 64.941811 -59.407196 94.535858 14.117633 161.93599 -20.52429 -166.52286
190000000 -22.88641 -130.52332 -18.224354 -6.3289037 -60.287342 98.467957 -75.07299 176.097
14.116589 161.4707 -20.707479 -172.40312 -40.827171 66.293602 -64.055634 113.61651
-59.792816 97.79789 -76.494698 96.163544 -22.969105 -130.94881 -18.224592 -6.4236641
-38.845772 66.110115 -59.093765 98.477318 14.106611 161.55554 -20.530743 -170.39104
200000000 -23.150057 -133.44052 -18.240021 -6.939847 -60.021885 107.96889 -77.283386 148.97961
14.107004 161.07158 -20.640612 -176.49561 -40.453262 64.302246 -60.181309 87.196419
-59.222675 95.844543 -71.891815 127.47124 -23.259399 -134.3555 -18.225109 -6.9008822
-38.448032 63.725105 -57.006458 92.96064 14.094708 161.16341 -20.499367 -173.8896
210000000 -23.34207 -137.81516 -18.229288 -7.732481 -61.343918 105.45352 -69.546173 -20.883228
14.09106 160.66727 -20.496698 179.78296 -40.249283 63.516052 -59.777542 100.37362
-60.414616 102.43277 -75.050545 -66.21199 -23.492683 -136.96159 -18.232775 -7.8619723
-37.978043 62.860786 -58.262238 85.929604 14.098554 160.62164 -20.484974 -176.75044
220000000 -23.51606 -141.43385 -18.227262 -8.3370914 -62.794926 97.747826 -73.551857 17.444536
14.081232 160.21014 -20.369223 176.64407 -39.655697 64.302879 -57.777561 91.591591
-58.864697 99.945534 -77.527489 62.703308 -23.745899 -140.80945 -18.22147 -8.4635391
-37.675941 62.485428 -56.843437 90.995155 14.084873 160.21269 -20.340382 -179.96362
230000000 -23.591202 -144.39252 -18.235338 -8.942976 -60.634766 95.028038 -70.938812 34.420521
14.071961 159.74323 -20.25544 173.92769 -39.242065 63.994083 -60.019157 81.843338
-56.200752 91.991051 -74.117851 -83.755165 -23.964752 -144.17146 -18.224798 -9.1577101
-37.371979 61.609188 -58.886703 86.797752 14.074111 159.72978 -20.315975 177.19627
240000000 -23.675787 -147.30962 -18.242199 -9.6117783 -61.582115 93.418106 -80.636536 128.37738
14.066289 159.25529 -20.104357 171.15372 -38.965031 62.257721 -59.809639 91.818581
-56.796848 94.841507 -77.90493 -141.5701 -24.02132 -147.22443 -18.230118 -9.6913872
-36.896835 61.010468 -56.755451 91.841774 14.070324 159.26001 -20.202318 174.79491
250000000 -23.602997 -150.56546 -18.225569 -10.280181 -60.735706 88.874435 -72.441116 -28.298832
14.055686 158.76654 -19.915524 168.96518 -38.464977 60.877007 -56.733803 82.388428
-57.650658 89.556702 -70.384224 -60.565475 -24.073265 -150.52521 -18.212914 -10.555867
-36.538895 61.641209 -56.07122 73.29071 14.059061 158.74512 -20.045687 172.55258
260000000 -23.815863 -154.31456 -18.274809 -10.779534 -64.199783 90.540657 -73.805435 25.744534
14.054917 158.23834 -19.708052 165.91869 -38.618832 59.767071 -59.182938 75.744865
-59.734489 75.8769 -76.87146 -72.629478 -24.132984 -153.96815 -18.222483 -11.311126
-35.909096 60.20945 -56.498882 97.695045 14.058844 158.23024 -19.95388 170.11797
270000000 -23.773361 -155.74869 -18.28249 -11.518694 -60.677601 101.97661 -66.801682 -171.57108
14.054185 157.68901 -19.689459 164.62286 -37.959213 59.297531 -57.210907 91.03035
-57.549183 84.54821 -61.996948 -144.72128 -24.291151 -156.90698 -18.265102 -11.820713
-35.897758 59.503674 -53.883762 84.492386 14.056844 157.74068 -19.76989 167.86578
280000000 -23.753607 -158.66289 -18.256233 -12.074633 -56.769817 97.502922 -69.656883 -1.5639203
14.046679 157.20995 -19.532808 162.34605 -37.755932 58.716194 -57.103706 88.058868
-57.572803 90.259476 -71.386673 -25.651701 -24.270147 -160.27498 -18.263884 -12.310347
-35.803658 58.377033 -55.00956 83.714088 14.049129 157.16695 -19.622072 166.09149
290000000 -23.747616 -161.2355 -18.254986 -12.833723 -56.08741 99.686234 -73.075607 5.147573
14.04064 156.66557 -19.407276 160.44928 -37.493832 58.667549 -57.020222 90.214066
-56.670734 95.769386 -77.514549 125.16326 -24.169897 -163.74889 -18.244202 -12.843972
-35.272343 57.883614 -55.523247 76.674622 14.041048 156.66331 -19.546513 164.03595
300000000 -23.638094 -162.40736 -18.276625 -13.415632 -57.976269 95.150185 -75.867142 -167.29594
14.040304 156.11049 -19.268724 158.44446 -36.969673 56.230957 -56.330448 103.41468
-55.149345 87.76339 -73.661568 -130.13992 -24.197397 -164.88548 -18.252583 -13.485238
-35.101303 57.536407 -55.787498 73.866241 14.041302 156.04045 -19.459951 162.16039
310000000 -23.554304 -165.25662 -18.281391 -14.014126 -57.030952 110.72707 -88.753418 -4.5752044
14.026043 155.59207 -19.079971 156.72115 -37.0364 57.175465 -54.950756 95.263329
-57.268303 93.55851 -66.566833 67.672234 -24.148912 -168.0159 -18.257284 -14.294667
-34.805511 55.63887 -54.998085 87.958916 14.032829 155.54453 -19.370024 160.07152
320000000 -23.517694 -167.10542 -18.256174 -14.577002 -56.818916 92.289787 -79.266304 -122.87805
14.028453 155.03122 -18.964771 154.89708 -36.572659 54.681286 -57.082043 87.559372
-53.136864 96.449738 -68.99881 84.311806 -24.061241 -170.90845 -18.233904 -14.625204
-34.582458 55.483967 -52.986912 82.059761 14.028271 155.05188 -19.224318 158.00731
330000000 -23.568926 -169.10114 -18.290266 -14.975737 -56.940979 105.34566 -76.113487 -149.41772
14.025656 154.49979 -18.910858 152.94281 -36.297985 55.61414 -54.709209 88.954506
-54.338581 88.266762 -79.815147 125.31285 -23.897306 -172.25772 -18.295469 -15.376948
-34.346756 54.323601 -55.159626 75.066803 14.025436 154.40875 -19.044783 156.76024
340000000 -23.450903 -170.24075 -18.296394 -15.477929 -57.188251 108.10346 -78.647148 -159.49269
14.022024 153.91621 -18.815794 151.52081 -36.109596 54.419533 -56.339558 84.797424
-54.365433 88.972664 -71.577873 136.70172 -23.743921 -172.91667 -18.295898 -16.079533
-34.085175 54.240723 -54.975803 79.865852 14.025298 153.86668 -18.925392 155.61217
350000000 -23.524393 -172.05859 -18.29949 -16.322319 -58.552963 96.201942 -68.292282 128.5451
14.018102 153.34213 -18.701859 149.97818 -36.01733 53.00663 -53.547001 91.647835
-52.516598 89.64946 -69.650322 138.23766 -23.658171 -175.29726 -18.303179 -16.284412
-33.64238 52.117748 -54.186058 83.274414 14.02515 153.24869 -18.734821 153.32591
360000000 -23.44025 -173.23882 -18.310715 -16.891891 -56.558807 93.251228 -70.900864 91.199196
14.012278 152.77327 -18.613974 148.63615 -35.571022 51.760799 -54.750263 89.072006
-53.64045 91.050507 -73.595833 141.24512 -23.587879 -176.57378 -18.286467 -17.189354
-33.567883 52.381969 -53.713543 81.529137 14.017673 152.68759 -18.700205 151.66374
370000000 -23.477114 -174.97475 -18.291744 -17.377102 -55.760532 105.29129 -77.748276 -60.954575
14.010367 152.15984 -18.49666 146.8269 -35.516853 50.81115 -54.125587 82.711487
-54.385818 96.379417 -70.407494 132.39226 -23.394777 -178.83696 -18.303001 -17.605907
-33.371918 51.380753 -54.37077 83.823181 14.017284 152.13174 -18.531368 150.26665
380000000 -23.381851 -176.46373 -18.321398 -17.870829 -56.318348 99.729507 -70.036179 109.42709
14.007797 151.58311 -18.377142 145.45465 -35.180096 50.561062 -54.152813 84.898315
-53.578754 91.814888 -80.904541 9.2824993 -23.3885 -179.89793 -18.310541 -18.184832
-33.144794 50.447567 -53.426479 77.219177 14.01465 151.53387 -18.436304 148.51225
390000000 -23.342045 -177.97908 -18.312374 -18.438717 -56.425831 96.230896 -73.492752 118.23592
14.006745 151.01546 -18.26185 143.8286 -34.920399 48.819645 -53.677082 95.013435
-52.590797 87.932297 -71.734261 -5.0568933 -23.27602 179.85997 -18.308842 -18.823391
-32.89473 49.274292 -53.933064 80.556068 14.017083 150.92606 -18.380972 146.8913
400000000 -23.224058 -179.27602 -18.310095 -19.029133 -55.976463 111.43425 -67.563042 -171.97218
14.004978 150.43053 -18.156237 142.16672 -34.742462 48.659412 -54.726189 85.346497
-52.872066 99.886269 -73.426598 145.51477 -23.153923 177.52693 -18.339149 -19.395189
-32.715225 49.402885 -52.259174 78.27845 14.00853 150.36862 -18.20879 145.15814
410000000 -23.30134 179.8567 -18.336868 -19.733665 -55.085655 98.952698 -65.273994 140.79422
14.008488 149.81517 -18.090429 140.95296 -34.544727 47.577911 -53.842815 95.669373
-52.113823 93.878616 -89.887825 -35.960979 -23.083857 177.1243 -18.337849 -20.087585
-32.600258 48.936623 -51.989029 76.05954 14.015496 149.73448 -18.101891 143.89841
420000000 -23.308527 178.4624 -18.353865 -20.145786 -54.71067 109.96554 -71.435318 120.00446
14.004421 149.23567 -17.986366 139.3925 -34.347172 46.570408 -53.457043 86.804474
-52.079678 93.254402 -74.030853 -30.258602 -22.988016 176.24544 -18.351976 -20.553133
-32.420288 46.33329 -51.420677 81.201134 14.013631 149.12296 -17.993649 142.51138
430000000 -23.329309 177.35614 -18.335459 -20.739447 -55.171288 87.793304 -74.900528 153.9272
14.004699 148.63211 -17.86281 137.79128 -34.204994 45.62859 -53.108982 89.643433
-52.392506 88.260612 -72.539345 -149.09239 -22.952816 174.78276 -18.367914 -21.223124
-32.14436 46.780899 -52.312473 82.761246 14.008931 148.53851 -17.846334 140.93196
440000000 -23.282551 176.14575 -18.350136 -21.249855 -56.044735 96.607941 -69.716728 124.49505
14.006851 148.02266 -17.779955 136.74464 -34.078922 45.163513 -53.277115 82.445679
-51.659233 92.33255 -77.579216 30.216604 -22.862799 173.77841 -18.366302 -21.532551
-32.019524 46.158684 -52.020866 79.714684 14.005212 147.92116 -17.767595 139.91898
450000000 -23.215309 175.21765 -18.354519 -21.732235 -54.532001 101.71836 -76.239296 -23.447123
14.001842 147.39128 -17.673271 135.65306 -33.875591 44.179504 -51.969227 93.324486
-51.284645 87.574966 -64.734085 67.71093 -22.799648 172.36304 -18.360895 -22.358017
-31.787645 44.932648 -50.362854 73.643677 14.004088 147.34122 -17.64679 138.84129
460000000 -23.205694 174.00943 -18.368616 -22.274704 -53.16975 101.02864 -80.759888 85.894264
14.005399 146.7767 -17.574997 134.45897 -33.701439 43.112778 -52.290226 80.959015
-51.819466 81.545433 -89.601601 53.896526 -22.753487 171.03221 -18.342215 -22.809204
-31.61249 44.271126 -51.078426 79.148033 14.007178 146.70465 -17.54229 137.5056
470000000 -23.077513 172.32019 -18.378115 -22.870922 -53.709167 89.331978 -94.898422 -78.084343
13.999476 146.1631 -17.442322 133.23398 -33.454243 42.713276 -53.416767 82.491463
-52.363201 83.875145 -70.683136 102.03474 -22.781826 170.5519 -18.360064 -23.285072
-31.380249 43.082851 -52.021175 81.038513 14.00931 146.13016 -17.454712 136.35609
480000000 -23.046185 171.27838 -18.37645 -23.567568 -53.689709 89.689415 -81.422646 53.850079
14.003021 145.53139 -17.363373 132.27415 -33.269733 41.057961 -53.443771 85.664825
-50.665615 84.678093 -69.204636 85.979683 -22.757484 168.78508 -18.403866 -23.852171
-31.235046 42.127998 -50.356449 77.466011 14.00133 145.48978 -17.349016 135.12704
490000000 -23.006964 170.18205 -18.398396 -23.968817 -54.397961 94.966339 -77.014587 154.87759
14.002447 144.93175 -17.202564 131.01591 -33.081684 40.083328 -52.002419 86.447823
-51.676769 90.740105 -68.931892 72.197189 -22.776464 167.42931 -18.390345 -24.265398
-31.06629 40.930519 -50.556683 79.224953 14.010898 144.88475 -17.263081 134.01575
500000000 -22.939289 168.76505 -18.403255 -24.540558 -53.128372 99.86779 -69.976311 127.2928
14.001263 144.31015 -17.134804 129.55278 -33.073746 39.747967 -51.557384 90.071274
-50.179535 88.569199 -71.18795 170.00963 -22.66383 166.31363 -18.39365 -24.951801
-30.83202 40.275753 -49.995422 75.45639 14.010143 144.25055 -17.166662 132.84715
510000000 -22.918619 167.87109 -18.389578 -24.897934 -53.957165 98.428833 -73.489334 90.449806
14.003006 143.65385 -17.015636 128.40274 -32.803802 38.409199 -51.243198 82.619553
-50.51152 86.788994 -87.016495 173.55008 -22.675617 165.01936 -18.420361 -25.502846
-30.696459 39.647327 -50.434555 75.203812 14.006277 143.63161 -17.076712 131.7982
520000000 -22.815922 166.44333 -18.398466 -25.797504 -51.984467 89.469688 -76.509369 168.93916
14.003477 143.09113 -16.91637 127.6855 -32.633804 37.479465 -52.440289 84.28154
-51.155109 86.448174 -75.170883 -111.40642 -22.723955 163.87256 -18.389692 -25.98283
-30.614937 38.675549 -49.924835 70.697853 14.007839 142.97629 -17.008116 131.10619
530000000 -22.786356 165.01755 -18.428328 -26.106302 -51.561176 100.25465 -73.454178 96.102692
14.001866 142.42061 -16.77013 126.63255 -32.479137 37.147739 -51.304714 89.327888
-49.713467 85.96254 -77.861504 87.064049 -22.576433 162.35397 -18.420397 -26.576485
-30.497961 37.736446 -51.188171 78.559914 14.008084 142.33475 -16.870913 130.1133
540000000 -22.700062 163.47997 -18.420433 -26.739155 -52.209126 98.338554 -66.997505 116.88089
14.001508 141.79784 -16.671638 125.52969 -32.285889 36.696621 -52.199699 86.488327
-49.331856 83.611076 -73.536469 -165.73891 -22.58602 160.55362 -18.416641 -26.998745
-30.247869 36.774521 -48.945293 72.989594 14.007797 141.776 -16.793612 129.22488
550000000 -22.637175 162.46886 -18.44397 -27.415384 -52.416283 101.61226 -69.917908 84.755051
14.000145 141.15541 -16.579777 124.53297 -32.22739 35.907612 -50.583878 84.062393
-50.803623 86.726898 -76.712036 -122.47703 -22.559122 159.45703 -18.415443 -27.601023
-30.147421 36.439632 -50.574917 68.013535 14.008473 141.08551 -16.710958 128.30141
560000000 -22.561676 161.40434 -18.448931 -27.78624 -52.496166 95.146919 -77.201645 37.396545
