!Mini-Circuits Laboratory
!S-Parameters
!Model: MPGA-105+
!Run / Lot / Date Code: NA / BP384P001-05 / 1348
!Fixture: NA; TB-561+
!AUTO PORT EXTENSION DONE: PORT<1>=113.35ps; PORT<2>=112.76ps; PORT<3>=112.16ps; PORT<4>=112.11ps
!Network Analyzer: PNA-X N5242A - 423 4 ports;  Serial number: 71256
!Date: 2/15/2014
!S/N: Unit# 1
!Correction: S11(Full 4 Port(1,2,3,4)) 
!S12(Full 4 Port(1,2,3,4)) 
!S13(Full 4 Port(1,2,3,4)) 
!S14(Full 4 Port(1,2,3,4)) 
!S21(Full 4 Port(1,2,3,4)) 
!S22(Full 4 Port(1,2,3,4)) 
!S23(Full 4 Port(1,2,3,4)) 
!S24(Full 4 Port(1,2,3,4)) 
!S31(Full 4 Port(1,2,3,4)) 
!S32(Full 4 Port(1,2,3,4)) 
!S33(Full 4 Port(1,2,3,4)) 
!S34(Full 4 Port(1,2,3,4)) 
!S41(Full 4 Port(1,2,3,4)) 
!S42(Full 4 Port(1,2,3,4)) 
!S43(Full 4 Port(1,2,3,4)) 
!S44(Full 4 Port(1,2,3,4)) 
!S4P File: Measurements: <S11,S12,S13,S14>,
!<S21,S22,S23,S24>,
!<S31,S32,S33,S34>,
!<S41,S42,S43,S44>:
# Hz S  dB   R 50
10000000 -3.0772347 -38.684109 -22.410149 46.492401 -45.316448 -53.293129 -50.157917 -12.21146
20.061821 158.87854 -4.3160934 -41.64365 -36.330894 -44.078991 -40.777496 -6.2311068
-48.987675 -6.3139501 -51.474556 -16.60924 -2.7948124 -39.259212 -22.542707 46.116638
-38.78196 21.192724 -40.485497 -2.6838865 20.091934 159.88258 -3.9872391 -42.409008
20000000 -6.4449458 -58.496616 -20.120356 28.540018 -65.309265 175.86545 -59.225674 -72.821701
17.959953 155.81026 -7.6792064 -65.491608 -59.919922 92.26548 -59.541039 -133.27989
-56.746067 49.329945 -58.015469 95.119232 -6.3616095 -58.446442 -20.119482 29.027597
-53.31282 31.728928 -77.549438 -48.241879 17.993233 155.81152 -7.6482162 -65.301628
30000000 -9.2256355 -67.15979 -19.373962 19.563286 -63.166775 -90.508522 -64.560631 97.051979
16.720934 157.5143 -10.541301 -77.664352 -57.490662 81.373451 -60.99778 -21.477045
-58.796379 81.867615 -77.152802 -131.30664 -9.2103157 -67.375725 -19.400764 19.23068
-51.518436 61.913357 -64.100227 173.69981 16.747761 157.36699 -10.512774 -77.96817
40000000 -11.453621 -71.836555 -19.160067 14.283726 -64.998199 -124.46507 -68.186607 31.462479
16.044111 159.68872 -12.848846 -85.839981 -51.812183 78.54261 -73.013504 -49.093208
-67.971046 151.71077 -67.093796 -29.505926 -11.406848 -71.842293 -19.176161 14.147373
-49.50478 67.362778 -68.181992 93.672729 16.058376 159.61632 -12.816151 -86.02636
50000000 -13.250099 -73.878609 -18.988411 10.243327 -58.360229 -175.63274 -60.682816 -70.895424
15.65313 161.50777 -14.694634 -91.335175 -52.34272 82.62616 -62.788448 -82.603996
-58.586277 116.83847 -60.898182 -80.747368 -13.124004 -74.948898 -19.071209 9.9665308
-46.980068 75.550728 -59.740139 -55.856598 15.675307 161.45236 -14.580535 -92.50312
60000000 -14.51254 -76.868149 -19.066818 8.086318 -57.744682 88.339035 -55.219414 154.17145
15.40559 162.81627 -16.114212 -98.272972 -49.961681 72.58297 -66.980423 -173.916
-74.2416 -61.747314 -70.405334 -160.78911 -14.64667 -76.861992 -18.973701 8.4571228
-47.977184 49.140011 -55.180271 154.16283 15.411373 162.71609 -16.211594 -98.545082
70000000 -15.842 -77.451324 -18.93701 6.034297 -69.834717 -175.65527 -69.214645 106.72653
15.246452 163.74599 -17.604185 -102.64267 -48.056271 72.112335 -62.538574 139.5289
-74.839684 -29.920221 -76.940269 113.97566 -15.875752 -77.636612 -18.944553 6.221807
-46.264362 67.506393 -67.857796 76.949928 15.254139 163.72691 -17.475216 -103.19588
80000000 -16.882076 -78.172714 -18.905914 4.4234915 -76.194962 135.06946 -75.049721 -133.90953
15.140197 164.28632 -18.770796 -107.49554 -46.840431 72.68232 -70.521736 91.13839
-66.726082 47.15937 -75.787903 -159.23338 -16.95949 -78.381111 -18.93261 4.5540404
-44.917824 69.053741 -68.753258 167.047 15.147417 164.32666 -18.706022 -107.7805
90000000 -17.763517 -78.754372 -18.896296 2.9942489 -63.064404 97.263199 -75.694275 150.24341
15.066579 164.62524 -19.8151 -111.93027 -46.262783 75.27636 -65.153816 143.22414
-67.169106 97.403557 -87.306915 163.8475 -17.815268 -78.977707 -18.893101 3.2671821
-44.458984 67.884804 -65.121712 90.482918 15.068089 164.68509 -19.718576 -112.14108
100000000 -18.563839 -79.107635 -18.870474 1.9198261 -64.09639 153.28745 -70.85553 -115.67294
15.007579 164.78329 -20.813425 -116.09093 -45.451073 74.662971 -66.481819 131.20134
-61.459984 100.55432 -74.132248 -123.72151 -18.556477 -79.811562 -18.891449 1.9606804
-42.91058 69.390244 -66.034225 135.56166 15.01337 164.83617 -20.592285 -116.77133
110000000 -19.26181 -79.764107 -18.882498 0.76297015 -62.725449 132.02292 -68.311058 -146.96515
14.96974 164.76753 -21.715366 -121.04303 -44.638969 69.713173 -67.315636 113.19293
-64.690521 109.62897 -72.623802 167.31436 -19.323915 -79.9515 -18.876881 0.74413282
-42.545536 70.381058 -62.489151 115.32292 14.979136 164.83646 -21.49831 -121.22009
120000000 -19.853331 -80.147202 -18.868874 -0.1998488 -66.420341 135.60258 -77.492386 108.97511
14.935599 164.69391 -22.515919 -125.33815 -44.270664 71.280434 -65.34005 123.20737
-63.519695 93.047661 -69.695946 53.423794 -19.982346 -80.710258 -18.86289 -0.092018135
-42.168671 68.439156 -61.845486 112.32227 14.938305 164.71167 -22.258186 -125.99202
130000000 -20.402422 -81.088448 -18.873831 -1.1494427 -59.535343 167.91245 -68.0662 152.08128
14.912157 164.55904 -23.325146 -129.6207 -43.641903 70.095139 -67.608429 112.56886
-61.466862 79.414642 -82.253792 16.332499 -20.490145 -81.21183 -18.870243 -1.0606786
-41.343788 70.117775 -65.899391 110.52365 14.908393 164.64624 -22.847139 -130.21275
140000000 -20.918575 -81.068787 -18.84613 -1.8392667 -65.758919 91.579926 -78.417419 -20.838203
14.882524 164.30295 -23.937267 -135.33601 -42.640587 69.46801 -63.972874 71.224785
-64.083084 97.558167 -68.942764 -9.0443983 -21.038958 -81.067825 -18.86636 -1.7513816
-40.828712 70.512405 -59.896286 81.51754 14.888661 164.32448 -23.545786 -134.51601
150000000 -21.323919 -81.662407 -18.850231 -2.5510418 -62.045334 89.778984 -72.240356 110.26507
14.857982 164.00616 -24.454184 -140.54646 -41.772854 70.328445 -64.016388 107.05794
-59.151001 96.803009 -74.079086 161.92778 -21.512722 -81.450851 -18.851221 -2.3832757
-40.171474 67.855499 -58.559372 92.397003 14.863708 164.12389 -24.110157 -139.03735
160000000 -21.741238 -82.007057 -18.857388 -3.3220611 -64.545654 112.62455 -69.981491 -29.984722
14.845177 163.69127 -25.002968 -145.40251 -41.435505 68.744591 -68.62854 85.163551
-60.997437 99.397018 -74.186798 -166.69099 -21.905464 -82.430634 -18.863485 -3.2343578
-39.676247 68.360474 -59.590389 96.282928 14.842877 163.7805 -24.543522 -143.93857
170000000 -22.192299 -82.913857 -18.85125 -3.9592485 -60.766048 78.85495 -74.00164 -24.279406
14.832146 163.32878 -25.428406 -150.61758 -41.306068 68.106422 -60.898491 86.950737
-63.649719 82.720924 -66.653671 109.16 -22.25938 -82.795708 -18.858383 -3.9327013
-39.373226 66.224701 -60.466003 83.996857 14.83226 163.43135 -24.993891 -148.50127
180000000 -22.472649 -82.850311 -18.844839 -4.6667471 -66.493179 116.3563 -74.895256 87.885696
14.82023 162.94928 -25.780779 -155.04044 -40.67086 65.796944 -60.759377 84.285278
-63.044632 100.94557 -87.727882 -74.966927 -22.635324 -83.128578 -18.851189 -4.7989841
-38.745041 66.028885 -60.309292 89.216476 14.818637 163.02336 -25.322824 -153.15042
190000000 -22.801205 -83.492493 -18.868614 -5.3951468 -66.730606 104.29314 -73.030579 153.07141
14.80983 162.50043 -26.041136 -159.92952 -40.479729 65.494049 -61.823303 107.69398
-60.877827 81.4562 -73.7117 125.07401 -22.95237 -84.190971 -18.865524 -5.2014956
-37.938522 64.818588 -57.876389 116.92539 14.80909 162.59972 -25.559765 -157.98732
200000000 -23.052998 -84.095047 -18.863411 -5.9815435 -63.806145 138.35403 -68.460999 134.03474
14.80465 162.058 -26.303123 -165.74281 -40.018875 65.604538 -60.11137 98.654533
-58.16407 102.29472 -78.90435 -52.343571 -23.200836 -84.867081 -18.894024 -5.861917
-37.692509 65.116211 -57.886272 97.577393 14.800612 162.16771 -25.839172 -162.39914
210000000 -23.355368 -85.430946 -18.865604 -6.5974956 -60.009014 85.400391 -76.221115 168.96442
14.788707 161.60138 -26.4158 -170.76186 -39.461124 64.612869 -60.75008 79.746529
-58.576714 107.02603 -70.322273 -119.04179 -23.349979 -85.106789 -18.864988 -6.4823556
-37.344631 64.215714 -58.521313 106.32489 14.806561 161.57352 -26.024298 -166.23596
220000000 -23.596354 -86.099945 -18.871988 -7.0888171 -61.630142 108.04905 -73.184517 -53.049793
14.781935 161.11716 -26.43536 -176.30902 -39.147022 64.185013 -61.243988 82.337067
-59.092861 87.255745 -77.047897 123.16615 -23.626816 -86.32708 -18.852308 -7.3196177
-37.170696 64.237953 -59.774326 93.228683 14.792106 161.12941 -26.030863 -170.8763
230000000 -23.735291 -86.816391 -18.86801 -7.7137928 -60.961033 87.341759 -78.017006 110.68872
14.774256 160.5983 -26.550789 179.02779 -38.799248 64.338501 -60.940479 93.331848
-60.11594 83.894775 -64.443932 96.114136 -23.913044 -86.789467 -18.851284 -7.8360233
-36.653305 62.24189 -59.389332 86.670891 14.784707 160.6088 -26.199097 -175.87447
240000000 -23.953245 -87.794411 -18.895638 -8.1285849 -62.65839 96.490143 -71.282089 107.51732
14.769437 160.08453 -26.388531 174.89465 -38.304432 62.308758 -59.511406 81.108009
-60.441921 93.779099 -68.187012 66.016296 -24.021673 -87.838387 -18.853832 -8.4226799
-36.279442 60.981106 -58.141525 92.157684 14.780404 160.08574 -26.26568 -179.70656
250000000 -24.020504 -88.804642 -18.861851 -8.7821932 -57.983917 89.79705 -69.463837 5.3686824
14.760045 159.55554 -26.372366 170.94235 -38.034664 61.719364 -57.651684 66.483574
-63.343315 97.588699 -73.809067 138.92667 -24.196896 -89.223633 -18.858751 -8.9256983
-36.083649 61.143711 -57.339569 93.837837 14.77122 159.56447 -26.174129 177.02568
260000000 -24.428827 -89.53817 -18.883018 -9.2786388 -59.749237 136.21846 -75.14827 -175.94962
14.758209 158.98436 -26.186382 166.10048 -37.841888 62.698971 -58.394318 83.808838
-55.464512 81.438728 -69.011848 -2.6426797 -24.321733 -90.484398 -18.881247 -9.6536684
-35.504246 59.77927 -56.170631 81.194122 14.771239 158.99835 -26.235678 173.08583
270000000 -24.366573 -90.500984 -18.892164 -9.8212662 -62.436737 87.229324 -77.721642 60.817768
14.757437 158.42247 -26.214905 163.49901 -37.5205 60.845814 -58.250507 85.861763
-57.373608 98.536667 -66.201462 -171.90332 -24.524982 -90.586708 -18.914385 -9.8891582
-35.460663 59.327412 -57.121361 93.412804 14.767424 158.48999 -26.047159 168.95811
280000000 -24.602751 -91.729424 -18.904665 -10.349192 -58.083214 110.80826 -72.822548 -125.0211
14.748162 157.9066 -26.041267 160.01434 -37.009674 58.825504 -55.126263 96.949936
-59.937267 100.33271 -98.10392 18.311342 -24.739502 -91.897606 -18.885792 -10.567092
-35.175354 59.867401 -58.764591 83.662537 14.762608 157.89676 -25.865459 165.68492
290000000 -24.754339 -93.012711 -18.927246 -10.953004 -59.959629 117.45177 -69.069588 176.55826
14.745538 157.33447 -25.893629 156.94304 -36.888157 59.252247 -55.984333 89.214012
-56.827614 94.927269 -70.109879 131.65891 -24.859867 -93.395866 -18.864262 -11.213593
-34.664169 58.175262 -54.779823 85.308502 14.750787 157.35257 -25.674454 161.87505
300000000 -24.726313 -94.104706 -18.875952 -11.475615 -60.553802 111.94589 -69.452652 34.432777
14.74262 156.7699 -25.524584 153.52129 -36.506615 58.52581 -56.238529 91.577209
-57.257633 93.071953 -67.196968 96.378738 -24.812792 -94.283592 -18.891846 -11.761415
-34.693634 57.023281 -55.562084 86.38726 14.751804 156.71045 -25.865665 158.80322
310000000 -24.84796 -96.224884 -18.907259 -12.074059 -59.191246 119.7329 -68.529907 88.159874
14.733092 156.19136 -25.38303 150.66794 -36.38958 56.631409 -57.897808 97.725136
-55.848743 91.372681 -68.780823 -10.53966 -25.068613 -95.702568 -18.916414 -12.446198
-34.150833 57.316154 -54.208107 100.71856 14.743342 156.1868 -25.601625 155.6501
320000000 -24.936089 -97.430717 -18.892406 -12.491347 -55.595417 112.37135 -79.17099 176.56882
14.732388 155.61095 -25.099886 147.88287 -35.91206 57.177902 -55.519054 94.255478
-59.446468 95.716362 -72.944267 -77.625702 -25.324247 -96.699989 -18.882839 -12.700028
-34.045681 55.79258 -54.460842 79.928764 14.740056 155.6899 -25.407728 152.83826
330000000 -25.144157 -98.282143 -18.887684 -12.987391 -55.714252 109.80838 -77.0168 -173.93773
14.727133 155.04741 -24.860229 144.93652 -35.759525 55.475937 -54.757904 99.180237
-53.817085 100.24233 -72.666916 167.85681 -25.287104 -99.064705 -18.872486 -13.178149
-33.62344 55.039455 -53.472088 84.405212 14.737796 155.01193 -25.085901 150.98413
340000000 -25.059036 -100.33329 -18.882395 -13.658139 -57.132488 99.768486 -75.615036 68.533226
14.722898 154.44716 -24.645916 143.03008 -35.435909 54.749775 -55.435814 93.707962
-54.861115 96.879372 -69.258774 -104.4626 -25.174057 -100.15642 -18.888172 -13.872786
-33.314102 53.977413 -54.986919 78.196815 14.735177 154.45576 -24.885254 149.73851
350000000 -25.201008 -101.39389 -18.921738 -14.206351 -58.569916 93.21981 -65.430641 125.38844
14.718055 153.86775 -24.483854 140.41963 -35.209049 53.538677 -56.576565 110.03537
-52.713894 104.73668 -73.817764 -51.618488 -25.424393 -101.53034 -18.919365 -14.110194
-33.016926 54.660484 -53.811722 94.327911 14.731706 153.82011 -24.600576 146.45789
360000000 -25.219933 -102.86263 -18.912827 -14.679002 -57.292534 111.42192 -82.93792 -176.06401
14.712561 153.26871 -24.167892 139.14305 -34.931355 52.27285 -55.239937 91.298248
-53.29224 103.32336 -80.14212 112.12045 -25.381111 -103.26682 -18.898296 -14.739352
-32.854824 51.798515 -54.033646 85.07473 14.723932 153.22911 -24.47167 144.34758
370000000 -25.334543 -104.09601 -18.945658 -15.03617 -55.808723 102.51534 -71.877037 13.523546
14.708111 152.64584 -23.930325 136.93857 -34.728764 52.366985 -53.824615 98.719322
-53.405975 93.767593 -71.564926 66.785454 -25.55666 -105.34561 -18.926102 -15.324624
-32.817108 50.848076 -53.226055 88.267143 14.724188 152.64789 -24.174397 142.13368
380000000 -25.470947 -106.19934 -18.943233 -15.624772 -58.335346 105.34682 -69.863876 61.17416
14.703082 152.04814 -23.661722 134.96185 -34.50555 50.828293 -55.338749 85.217842
-53.541912 97.384277 -71.891182 158.25526 -25.63722 -106.12357 -18.929535 -16.021748
-32.514462 50.672913 -54.444309 85.968536 14.716987 152.05145 -24.025194 140.02785
390000000 -25.530846 -108.4613 -18.924665 -15.991917 -55.218472 109.74789 -70.165794 129.34851
14.700747 151.46893 -23.396215 133.43288 -34.504303 50.997986 -53.330276 93.301132
-53.533615 96.745888 -70.176872 -128.13324 -25.568174 -107.95461 -18.93511 -16.254559
-32.367973 50.229256 -52.013271 89.001343 14.71991 151.41342 -23.939949 138.66473
400000000 -25.547945 -110.71453 -18.93866 -16.519873 -55.415962 93.587158 -67.655426 -83.110107
14.694942 150.85306 -23.16787 131.53711 -33.988922 49.280094 -54.789883 84.127159
-53.972694 94.05481 -71.267769 -106.71748 -25.677155 -109.78734 -18.938616 -16.845198
-32.272045 49.331062 -52.755707 80.905624 14.709213 150.85214 -23.536972 136.68753
410000000 -25.538622 -111.55093 -18.963266 -17.073362 -56.050335 109.0431 -81.333214 -161.37634
14.694905 150.23982 -22.966148 130.11682 -33.965233 48.225632 -53.714771 92.657021
-52.732582 91.811615 -85.481216 115.23615 -25.564253 -111.2663 -18.956263 -17.136328
-31.862066 48.064499 -53.192242 79.516853 14.71504 150.19128 -23.413614 135.27351
420000000 -25.636282 -113.49043 -18.938339 -17.622421 -55.307442 106.47624 -67.334747 145.90117
14.689348 149.62773 -22.724548 128.53778 -33.662769 47.441284 -53.645706 93.60363
-54.498718 97.225746 -70.592972 139.5983 -25.555536 -113.4291 -18.972513 -17.607349
-31.663368 47.273842 -51.843937 80.631424 14.709069 149.57043 -23.235228 133.78215
430000000 -25.602343 -114.84241 -18.991116 -18.043575 -56.016495 109.13837 -74.798492 -174.63809
14.688202 149.01118 -22.47506 126.88806 -33.643723 46.432667 -53.729149 88.058014
-51.685837 91.88282 -77.283287 -4.4183784 -25.693552 -114.93854 -18.982357 -18.457962
-31.491652 46.56284 -51.811958 80.725304 14.705271 148.96829 -22.963413 132.15265
440000000 -25.582067 -116.37641 -18.968302 -18.458298 -54.626663 107.66434 -74.244713 64.759369
14.685348 148.39259 -22.331423 125.67039 -33.269939 45.360035 -53.414761 84.737679
-53.323154 88.311378 -71.017853 112.97105 -25.680864 -116.90211 -18.957867 -18.889933
-31.349909 45.521385 -51.814678 82.630356 14.701262 148.32761 -22.786228 131.13361
450000000 -25.590042 -118.45901 -18.972282 -19.004539 -55.249313 108.48133 -84.097931 74.34037
14.681129 147.77249 -22.123428 124.66691 -33.19825 44.574284 -52.606373 93.812332
-51.610531 86.125648 -67.562469 106.41225 -25.744665 -119.21985 -18.962389 -19.283529
-31.088795 44.542038 -51.030098 77.279572 14.695608 147.75899 -22.558817 129.78145
460000000 -25.550177 -119.97518 -18.994669 -19.511589 -54.071491 106.06558 -73.922119 -44.247604
14.679775 147.13663 -21.890644 123.55518 -33.031342 43.844715 -53.26947 88.79287
-50.976707 88.80957 -70.722824 128.39664 -25.780499 -121.00543 -18.982647 -19.781843
-30.968441 44.334312 -52.194469 84.923141 14.695085 147.08939 -22.338118 128.49913
470000000 -25.594893 -122.46587 -18.966824 -20.016161 -54.63327 104.79208 -79.859032 112.05656
14.673535 146.53172 -21.673094 122.44722 -32.887245 42.888405 -53.902824 86.608658
-52.969868 87.622742 -72.505089 55.835396 -25.719868 -121.72146 -19.025345 -20.322311
-30.903757 43.104721 -51.565212 76.173752 14.694782 146.50285 -22.164433 127.31865
480000000 -25.550838 -124.02259 -18.998392 -20.563301 -53.537834 112.3204 -71.952148 81.319115
14.672933 145.86827 -21.540319 121.71952 -32.720127 42.503395 -52.869919 84.128174
-51.445217 87.755165 -87.898979 -118.39132 -25.699211 -124.57874 -18.978594 -20.641417
-30.634308 42.068623 -51.750011 81.778038 14.685534 145.85004 -21.955692 125.74181
490000000 -25.458057 -125.77698 -19.024071 -20.953814 -52.388729 111.54321 -71.255692 76.680687
14.670166 145.25189 -21.262182 120.48522 -32.554512 41.703819 -53.115623 93.709717
-51.411217 93.761185 -68.960838 156.6033 -25.798071 -125.67537 -19.002794 -21.08288
-30.530088 41.392708 -50.523186 72.737999 14.693055 145.22388 -21.841311 124.82027
500000000 -25.438404 -127.69794 -19.002466 -21.401796 -53.386997 102.68485 -77.115257 -56.279388
14.666715 144.6355 -21.104095 119.08446 -32.421261 40.810314 -51.566437 95.323395
-50.949677 93.118195 -73.659874 96.873436 -25.722998 -127.81311 -18.997778 -21.594105
-30.307289 40.980198 -50.091789 84.780273 14.68788 144.58786 -21.577427 123.36395
510000000 -25.329855 -129.44061 -18.999748 -22.000446 -52.795868 109.73309 -76.627396 -176.69275
14.666866 143.96553 -20.904751 117.99953 -32.184086 39.473167 -51.015877 92.554573
-51.195717 102.52502 -75.547272 163.08873 -25.634386 -129.41429 -19.028868 -22.15234
-30.181786 39.410873 -50.756969 80.401688 14.678479 143.97028 -21.441511 122.30854
520000000 -25.347723 -131.32271 -19.047068 -22.332424 -53.446968 108.05341 -77.81089 -147.48685
14.661962 143.38681 -20.723886 117.3491 -32.097504 38.793308 -51.590446 85.222237
-49.844593 96.564766 -67.373657 114.87646 -25.647049 -131.06642 -19.01222 -22.54711
-29.950113 38.846439 -49.630894 82.964737 14.679905 143.30646 -21.296501 121.88123
530000000 -25.343122 -132.80673 -19.034334 -22.811567 -53.051884 109.37569 -77.648842 -160.95236
14.655992 142.7061 -20.534389 116.32317 -31.945839 37.253387 -52.331142 98.012543
-50.743587 93.217468 -75.236618 48.178875 -25.579153 -133.5881 -19.043476 -23.068729
-29.857914 37.251331 -50.720734 79.611252 14.677691 142.67155 -21.0916 120.70469
540000000 -25.298954 -135.00154 -19.005827 -23.230455 -51.260338 104.05958 -77.457123 0.7654072
14.654804 142.08733 -20.350578 115.24651 -31.786858 36.524197 -51.321075 90.471924
-50.56638 90.64901 -72.2864 135.86697 -25.582369 -135.29492 -19.05871 -23.52397
-29.673164 36.690914 -50.963062 77.768372 14.675514 142.08176 -20.882889 119.53407
550000000 -25.232738 -136.85388 -19.045755 -23.801006 -51.8423 101.40293 -72.134796 163.13037
14.652111 141.45221 -20.167646 114.11304 -31.607367 35.776314 -51.263115 88.254959
-50.09037 89.382011 -71.317314 109.51823 -25.521395 -137.30357 -19.013863 -24.137062
-29.561174 35.993252 -50.061764 79.704521 14.671263 141.38857 -20.755257 118.46795
